name,type,start_time,duration,"data"
"Async 1","data",0.000592672,0.000082464,0x31
"Async 2","data",0.000592672,0.000082464,0x31
"Async 1","data",0.000679248,0.000082464,0x36
"Async 2","data",0.000679248,0.000082464,0x36
"Async 1","data",0.000765834,0.000082464,0x39
"Async 2","data",0.000765834,0.000082464,0x39
"Async 1","data",0.000852412,0.000082464,0x37
"Async 2","data",0.000852412,0.000082464,0x37
"Async 1","data",0.000938992,0.000082464,0x37
"Async 2","data",0.000938992,0.000082464,0x37
"Async 1","data",0.001025574,0.000082464,0x0D
"Async 2","data",0.001025574,0.000082464,0x0D
"Async 1","data",0.001112158,0.000082464,0x0A
"Async 2","data",0.001112158,0.000082464,0x0A
"Async 1","data",0.002120844,0.000082464,0x31
"Async 2","data",0.002120844,0.000082464,0x31
"Async 1","data",0.002207428,0.000082464,0x36
"Async 2","data",0.002207428,0.000082464,0x36
"Async 1","data",0.00229401,0.000082464,0x39
"Async 2","data",0.00229401,0.000082464,0x39
"Async 1","data",0.00238059,0.000082464,0x37
"Async 2","data",0.00238059,0.000082464,0x37
"Async 1","data",0.002467172,0.000082464,0x38
"Async 2","data",0.002467172,0.000082464,0x38
"Async 1","data",0.002553756,0.000082464,0x0D
"Async 2","data",0.002553756,0.000082464,0x0D
"Async 1","data",0.002640338,0.000082464,0x0A
"Async 2","data",0.002640338,0.000082464,0x0A
"Async 1","data",0.00433743,0.000082464,0x31
"Async 2","data",0.00433743,0.000082464,0x31
"Async 1","data",0.004424002,0.000082464,0x36
"Async 2","data",0.004424002,0.000082464,0x36
"Async 1","data",0.004510584,0.000082464,0x39
"Async 2","data",0.004510584,0.000082464,0x39
"Async 1","data",0.004597164,0.000082464,0x37
"Async 2","data",0.004597164,0.000082464,0x37
"Async 1","data",0.004683736,0.000082464,0x39
"Async 2","data",0.004683736,0.000082464,0x39
"Async 1","data",0.00477031,0.000082464,0x0D
"Async 2","data",0.00477031,0.000082464,0x0D
"Async 1","data",0.004856878,0.000082464,0x0A
"Async 2","data",0.004856878,0.000082464,0x0A
"Async 1","data",0.00587203,0.000082464,0x31
"Async 2","data",0.00587203,0.000082464,0x31
"Async 1","data",0.005958606,0.000082464,0x36
"Async 2","data",0.005958606,0.000082464,0x36
"Async 1","data",0.006045182,0.000082464,0x39
"Async 2","data",0.006045182,0.000082464,0x39
"Async 1","data",0.00613177,0.000082464,0x38
"Async 2","data",0.00613177,0.000082464,0x38
"Async 1","data",0.006218352,0.000082464,0x30
"Async 2","data",0.006218352,0.000082464,0x30
"Async 1","data",0.006304934,0.000082464,0x0D
"Async 2","data",0.006304934,0.000082464,0x0D
"Async 1","data",0.006391514,0.000082464,0x0A
"Async 2","data",0.006391514,0.000082464,0x0A
"Async 1","data",0.008088466,0.000082464,0x31
"Async 2","data",0.008088466,0.000082464,0x31
"Async 1","data",0.008175024,0.000082464,0x36
"Async 2","data",0.008175024,0.000082464,0x36
"Async 1","data",0.008261592,0.000082464,0x39
"Async 2","data",0.008261592,0.000082464,0x39
"Async 1","data",0.008348164,0.000082464,0x38
"Async 2","data",0.008348164,0.000082464,0x38
"Async 1","data",0.008434732,0.000082464,0x31
"Async 2","data",0.008434732,0.000082464,0x31
"Async 1","data",0.008521302,0.000082464,0x0D
"Async 2","data",0.008521302,0.000082464,0x0D
"Async 1","data",0.008607876,0.000082464,0x0A
"Async 2","data",0.008607876,0.000082464,0x0A
"Async 1","data",0.009622346,0.000082464,0x31
"Async 2","data",0.009622346,0.000082464,0x31
"Async 1","data",0.009708912,0.000082464,0x36
"Async 2","data",0.009708912,0.000082464,0x36
"Async 1","data",0.009795474,0.000082464,0x39
"Async 2","data",0.009795474,0.000082464,0x39
"Async 1","data",0.009882038,0.000082464,0x38
"Async 2","data",0.009882038,0.000082464,0x38
"Async 1","data",0.009968598,0.000082464,0x32
"Async 2","data",0.009968598,0.000082464,0x32
"Async 1","data",0.010055162,0.000082464,0x0D
"Async 2","data",0.010055162,0.000082464,0x0D
"Async 1","data",0.01014172,0.000082464,0x0A
"Async 2","data",0.01014172,0.000082464,0x0A
"Async 1","data",0.011840226,0.000082464,0x31
"Async 2","data",0.011840226,0.000082464,0x31
"Async 1","data",0.0119268,0.000082464,0x36
"Async 2","data",0.0119268,0.000082464,0x36
"Async 1","data",0.012013384,0.000082464,0x39
"Async 2","data",0.012013384,0.000082464,0x39
"Async 1","data",0.012099966,0.000082464,0x38
"Async 2","data",0.012099966,0.000082464,0x38
"Async 1","data",0.012186538,0.000082464,0x33
"Async 2","data",0.012186538,0.000082464,0x33
"Async 1","data",0.012273112,0.000082464,0x0D
"Async 2","data",0.012273112,0.000082464,0x0D
"Async 1","data",0.012359684,0.000082464,0x0A
"Async 2","data",0.012359684,0.000082464,0x0A
"Async 1","data",0.013368866,0.000082464,0x31
"Async 2","data",0.013368866,0.000082464,0x31
"Async 1","data",0.01345545,0.000082464,0x36
"Async 2","data",0.01345545,0.000082464,0x36
"Async 1","data",0.013542024,0.000082464,0x39
"Async 2","data",0.013542024,0.000082464,0x39
"Async 1","data",0.01362861,0.000082464,0x38
"Async 2","data",0.01362861,0.000082464,0x38
"Async 1","data",0.013715192,0.000082464,0x34
"Async 2","data",0.013715192,0.000082464,0x34
"Async 1","data",0.013801772,0.000082464,0x0D
"Async 2","data",0.013801772,0.000082464,0x0D
"Async 1","data",0.013888362,0.000082464,0x0A
"Async 2","data",0.013888362,0.000082464,0x0A
"Async 1","data",0.015591436,0.000082464,0x31
"Async 2","data",0.015591436,0.000082464,0x31
"Async 1","data",0.01567802,0.000082464,0x36
"Async 2","data",0.01567802,0.000082464,0x36
"Async 1","data",0.015764604,0.000082464,0x39
"Async 2","data",0.015764604,0.000082464,0x39
"Async 1","data",0.015851194,0.000082464,0x38
"Async 2","data",0.015851194,0.000082464,0x38
"Async 1","data",0.015937786,0.000082464,0x35
"Async 2","data",0.015937786,0.000082464,0x35
"Async 1","data",0.016024374,0.000082464,0x0D
"Async 2","data",0.016024374,0.000082464,0x0D
"Async 1","data",0.016110962,0.000082464,0x0A
"Async 2","data",0.016110962,0.000082464,0x0A
"Async 1","data",0.01712021,0.000082464,0x31
"Async 2","data",0.01712021,0.000082464,0x31
"Async 1","data",0.017206792,0.000082464,0x36
"Async 2","data",0.017206792,0.000082464,0x36
"Async 1","data",0.017293378,0.000082464,0x39
"Async 2","data",0.017293378,0.000082464,0x39
"Async 1","data",0.017379956,0.000082464,0x38
"Async 2","data",0.017379956,0.000082464,0x38
"Async 1","data",0.01746654,0.000082464,0x36
"Async 2","data",0.01746654,0.000082464,0x36
"Async 1","data",0.017553122,0.000082464,0x0D
"Async 2","data",0.017553122,0.000082464,0x0D
"Async 1","data",0.017639706,0.000082464,0x0A
"Async 2","data",0.017639706,0.000082464,0x0A
"Async 1","data",0.019336304,0.000082464,0x31
"Async 2","data",0.019336304,0.000082464,0x31
"Async 1","data",0.019422886,0.000082464,0x36
"Async 2","data",0.019422886,0.000082464,0x36
"Async 1","data",0.019509474,0.000082464,0x39
"Async 2","data",0.019509474,0.000082464,0x39
"Async 1","data",0.019596064,0.000082464,0x38
"Async 2","data",0.019596064,0.000082464,0x38
"Async 1","data",0.019682646,0.000082464,0x37
"Async 2","data",0.019682646,0.000082464,0x37
"Async 1","data",0.019769226,0.000082464,0x0D
"Async 2","data",0.019769226,0.000082464,0x0D
"Async 1","data",0.019855814,0.000082464,0x0A
"Async 2","data",0.019855814,0.000082464,0x0A
"Async 1","data",0.02087052,0.000082464,0x31
"Async 2","data",0.02087052,0.000082464,0x31
"Async 1","data",0.020957104,0.000082464,0x36
"Async 2","data",0.020957104,0.000082464,0x36
"Async 1","data",0.021043688,0.000082464,0x39
"Async 2","data",0.021043688,0.000082464,0x39
"Async 1","data",0.021130278,0.000082464,0x38
"Async 2","data",0.021130278,0.000082464,0x38
"Async 1","data",0.021216852,0.000082464,0x38
"Async 2","data",0.021216852,0.000082464,0x38
"Async 1","data",0.021303432,0.000082464,0x0D
"Async 2","data",0.021303432,0.000082464,0x0D
"Async 1","data",0.021390018,0.000082464,0x0A
"Async 2","data",0.021390018,0.000082464,0x0A
"Async 1","data",0.023087774,0.000082464,0x31
"Async 2","data",0.023087774,0.000082464,0x31
"Async 1","data",0.023174348,0.000082464,0x36
"Async 2","data",0.023174348,0.000082464,0x36
"Async 1","data",0.02326093,0.000082464,0x39
"Async 2","data",0.02326093,0.000082464,0x39
"Async 1","data",0.02334751,0.000082464,0x38
"Async 2","data",0.02334751,0.000082464,0x38
"Async 1","data",0.023434082,0.000082464,0x39
"Async 2","data",0.023434082,0.000082464,0x39
"Async 1","data",0.023520668,0.000082464,0x0D
"Async 2","data",0.023520668,0.000082464,0x0D
"Async 1","data",0.023607254,0.000082464,0x0A
"Async 2","data",0.023607254,0.000082464,0x0A
"Async 1","data",0.02462188,0.000082464,0x31
"Async 2","data",0.02462188,0.000082464,0x31
"Async 1","data",0.024708458,0.000082464,0x36
"Async 2","data",0.024708458,0.000082464,0x36
"Async 1","data",0.024795032,0.000082464,0x39
"Async 2","data",0.024795032,0.000082464,0x39
"Async 1","data",0.024881616,0.000082464,0x39
"Async 2","data",0.024881616,0.000082464,0x39
"Async 1","data",0.024968202,0.000082464,0x30
"Async 2","data",0.024968202,0.000082464,0x30
"Async 1","data",0.025054786,0.000082464,0x0D
"Async 2","data",0.025054786,0.000082464,0x0D
"Async 1","data",0.025141362,0.000082464,0x0A
"Async 2","data",0.025141362,0.000082464,0x0A
"Async 1","data",0.026838474,0.000082464,0x31
"Async 2","data",0.026838474,0.000082464,0x31
"Async 1","data",0.026925062,0.000082464,0x36
"Async 2","data",0.026925062,0.000082464,0x36
"Async 1","data",0.02701164,0.000082464,0x39
"Async 2","data",0.02701164,0.000082464,0x39
"Async 1","data",0.027098224,0.000082464,0x39
"Async 2","data",0.027098224,0.000082464,0x39
"Async 1","data",0.027184814,0.000082464,0x31
"Async 2","data",0.027184814,0.000082464,0x31
"Async 1","data",0.027271406,0.000082464,0x0D
"Async 2","data",0.027271406,0.000082464,0x0D
"Async 1","data",0.027357992,0.000082464,0x0A
"Async 2","data",0.027357992,0.000082464,0x0A
"Async 1","data",0.02836725,0.000082464,0x31
"Async 2","data",0.02836725,0.000082464,0x31
"Async 1","data",0.028453838,0.000082464,0x36
"Async 2","data",0.028453838,0.000082464,0x36
"Async 1","data",0.028540424,0.000082464,0x39
"Async 2","data",0.028540424,0.000082464,0x39
"Async 1","data",0.028627008,0.000082464,0x39
"Async 2","data",0.028627008,0.000082464,0x39
"Async 1","data",0.028713594,0.000082464,0x32
"Async 2","data",0.028713594,0.000082464,0x32
"Async 1","data",0.028800174,0.000082464,0x0D
"Async 2","data",0.028800174,0.000082464,0x0D
"Async 1","data",0.028886758,0.000082464,0x0A
"Async 2","data",0.028886758,0.000082464,0x0A
"Async 1","data",0.030589264,0.000082464,0x31
"Async 2","data",0.030589264,0.000082464,0x31
"Async 1","data",0.030675832,0.000082464,0x36
"Async 2","data",0.030675832,0.000082464,0x36
"Async 1","data",0.030762404,0.000082464,0x39
"Async 2","data",0.030762404,0.000082464,0x39
"Async 1","data",0.03084898,0.000082464,0x39
"Async 2","data",0.03084898,0.000082464,0x39
"Async 1","data",0.030935554,0.000082464,0x33
"Async 2","data",0.030935554,0.000082464,0x33
"Async 1","data",0.031022134,0.000082464,0x0D
"Async 2","data",0.031022134,0.000082464,0x0D
"Async 1","data",0.03110871,0.000082464,0x0A
"Async 2","data",0.03110871,0.000082464,0x0A
"Async 1","data",0.032117864,0.000082464,0x31
"Async 2","data",0.032117864,0.000082464,0x31
"Async 1","data",0.032204436,0.000082464,0x36
"Async 2","data",0.032204436,0.000082464,0x36
"Async 1","data",0.032291014,0.000082464,0x39
"Async 2","data",0.032291014,0.000082464,0x39
"Async 1","data",0.032377594,0.000082464,0x39
"Async 2","data",0.032377594,0.000082464,0x39
"Async 1","data",0.032464172,0.000082464,0x34
"Async 2","data",0.032464172,0.000082464,0x34
"Async 1","data",0.032550748,0.000082464,0x0D
"Async 2","data",0.032550748,0.000082464,0x0D
"Async 1","data",0.032637324,0.000082464,0x0A
"Async 2","data",0.032637324,0.000082464,0x0A
"Async 1","data",0.034333924,0.000082464,0x31
"Async 2","data",0.034333924,0.000082464,0x31
"Async 1","data",0.034420496,0.000082464,0x36
"Async 2","data",0.034420496,0.000082464,0x36
"Async 1","data",0.03450708,0.000082464,0x39
"Async 2","data",0.03450708,0.000082464,0x39
"Async 1","data",0.03459365,0.000082464,0x39
"Async 2","data",0.03459365,0.000082464,0x39
"Async 1","data",0.034680214,0.000082464,0x35
"Async 2","data",0.034680214,0.000082464,0x35
"Async 1","data",0.034766792,0.000082464,0x0D
"Async 2","data",0.034766792,0.000082464,0x0D
"Async 1","data",0.03485337,0.000082464,0x0A
"Async 2","data",0.03485337,0.000082464,0x0A
"Async 1","data",0.03586851,0.000082464,0x31
"Async 2","data",0.03586851,0.000082464,0x31
"Async 1","data",0.035955082,0.000082464,0x36
"Async 2","data",0.035955082,0.000082464,0x36
"Async 1","data",0.036041666,0.000082464,0x39
"Async 2","data",0.036041666,0.000082464,0x39
"Async 1","data",0.03612824,0.000082464,0x39
"Async 2","data",0.03612824,0.000082464,0x39
"Async 1","data",0.036214824,0.000082464,0x36
"Async 2","data",0.036214824,0.000082464,0x36
"Async 1","data",0.036301406,0.000082464,0x0D
"Async 2","data",0.036301406,0.000082464,0x0D
"Async 1","data",0.036387994,0.000082464,0x0A
"Async 2","data",0.036387994,0.000082464,0x0A
"Async 1","data",0.03808506,0.000082464,0x31
"Async 2","data",0.03808506,0.000082464,0x31
"Async 1","data",0.03817164,0.000082464,0x36
"Async 2","data",0.03817164,0.000082464,0x36
"Async 1","data",0.038258216,0.000082464,0x39
"Async 2","data",0.038258216,0.000082464,0x39
"Async 1","data",0.038344802,0.000082464,0x39
"Async 2","data",0.038344802,0.000082464,0x39
"Async 1","data",0.038431378,0.000082464,0x37
"Async 2","data",0.038431378,0.000082464,0x37
"Async 1","data",0.038517956,0.000082464,0x0D
"Async 2","data",0.038517956,0.000082464,0x0D
"Async 1","data",0.038604538,0.000082464,0x0A
"Async 2","data",0.038604538,0.000082464,0x0A
"Async 1","data",0.039619174,0.000082464,0x31
"Async 2","data",0.039619174,0.000082464,0x31
"Async 1","data",0.039705752,0.000082464,0x36
"Async 2","data",0.039705752,0.000082464,0x36
"Async 1","data",0.03979234,0.000082464,0x39
"Async 2","data",0.03979234,0.000082464,0x39
"Async 1","data",0.039878922,0.000082464,0x39
"Async 2","data",0.039878922,0.000082464,0x39
"Async 1","data",0.039965498,0.000082464,0x38
"Async 2","data",0.039965498,0.000082464,0x38
"Async 1","data",0.04005208,0.000082464,0x0D
"Async 2","data",0.04005208,0.000082464,0x0D
"Async 1","data",0.040138656,0.000082464,0x0A
"Async 2","data",0.040138656,0.000082464,0x0A
"Async 1","data",0.041836336,0.000082464,0x31
"Async 2","data",0.041836336,0.000082464,0x31
"Async 1","data",0.041922922,0.000082464,0x36
"Async 2","data",0.041922922,0.000082464,0x36
"Async 1","data",0.042009498,0.000082464,0x39
"Async 2","data",0.042009498,0.000082464,0x39
"Async 1","data",0.042096084,0.000082464,0x39
"Async 2","data",0.042096084,0.000082464,0x39
"Async 1","data",0.042182672,0.000082464,0x39
"Async 2","data",0.042182672,0.000082464,0x39
"Async 1","data",0.04226926,0.000082464,0x0D
"Async 2","data",0.04226926,0.000082464,0x0D
"Async 1","data",0.042355842,0.000082464,0x0A
"Async 2","data",0.042355842,0.000082464,0x0A
"Async 1","data",0.043364588,0.000082464,0x31
"Async 2","data",0.043364588,0.000082464,0x31
"Async 1","data",0.043451172,0.000082464,0x37
"Async 2","data",0.043451172,0.000082464,0x37
"Async 1","data",0.043537754,0.000082464,0x30
"Async 2","data",0.043537754,0.000082464,0x30
"Async 1","data",0.043624338,0.000082464,0x30
"Async 2","data",0.043624338,0.000082464,0x30
"Async 1","data",0.04371093,0.000082464,0x30
"Async 2","data",0.04371093,0.000082464,0x30
"Async 1","data",0.043797516,0.000082464,0x0D
"Async 2","data",0.043797516,0.000082464,0x0D
"Async 1","data",0.043884098,0.000082464,0x0A
"Async 2","data",0.043884098,0.000082464,0x0A
"Async 1","data",0.045586656,0.000082464,0x31
"Async 2","data",0.045586656,0.000082464,0x31
"Async 1","data",0.045673234,0.000082464,0x37
"Async 2","data",0.045673234,0.000082464,0x37
"Async 1","data",0.045759818,0.000082464,0x30
"Async 2","data",0.045759818,0.000082464,0x30
"Async 1","data",0.045846402,0.000082464,0x30
"Async 2","data",0.045846402,0.000082464,0x30
"Async 1","data",0.04593299,0.000082464,0x31
"Async 2","data",0.04593299,0.000082464,0x31
"Async 1","data",0.046019576,0.000082464,0x0D
"Async 2","data",0.046019576,0.000082464,0x0D
"Async 1","data",0.04610616,0.000082464,0x0A
"Async 2","data",0.04610616,0.000082464,0x0A
"Async 1","data",0.047114858,0.000082464,0x31
"Async 2","data",0.047114858,0.000082464,0x31
"Async 1","data",0.047201446,0.000082464,0x37
"Async 2","data",0.047201446,0.000082464,0x37
"Async 1","data",0.047288038,0.000082464,0x30
"Async 2","data",0.047288038,0.000082464,0x30
"Async 1","data",0.047374636,0.000082464,0x30
"Async 2","data",0.047374636,0.000082464,0x30
"Async 1","data",0.04746123,0.000082464,0x32
"Async 2","data",0.04746123,0.000082464,0x32
"Async 1","data",0.047547826,0.000082464,0x0D
"Async 2","data",0.047547826,0.000082464,0x0D
"Async 1","data",0.047634418,0.000082464,0x0A
"Async 2","data",0.047634418,0.000082464,0x0A
"Async 1","data",0.049332262,0.000082464,0x31
"Async 2","data",0.049332262,0.000082464,0x31
"Async 1","data",0.049418854,0.000082464,0x37
"Async 2","data",0.049418854,0.000082464,0x37
"Async 1","data",0.049505444,0.000082464,0x30
"Async 2","data",0.049505444,0.000082464,0x30
"Async 1","data",0.049592038,0.000082464,0x30
"Async 2","data",0.049592038,0.000082464,0x30
"Async 1","data",0.049678626,0.000082464,0x33
"Async 2","data",0.049678626,0.000082464,0x33
"Async 1","data",0.04976521,0.000082464,0x0D
"Async 2","data",0.04976521,0.000082464,0x0D
"Async 1","data",0.049851808,0.000082464,0x0A
"Async 2","data",0.049851808,0.000082464,0x0A
"Async 1","data",0.050866512,0.000082464,0x31
"Async 2","data",0.050866512,0.000082464,0x31
"Async 1","data",0.050953094,0.000082464,0x37
"Async 2","data",0.050953094,0.000082464,0x37
"Async 1","data",0.051039662,0.000082464,0x30
"Async 2","data",0.051039662,0.000082464,0x30
"Async 1","data",0.051126232,0.000082464,0x30
"Async 2","data",0.051126232,0.000082464,0x30
"Async 1","data",0.051212802,0.000082464,0x34
"Async 2","data",0.051212802,0.000082464,0x34
"Async 1","data",0.051299372,0.000082464,0x0D
"Async 2","data",0.051299372,0.000082464,0x0D
"Async 1","data",0.05138594,0.000082464,0x0A
"Async 2","data",0.05138594,0.000082464,0x0A
"Async 1","data",0.053082802,0.000082464,0x31
"Async 2","data",0.053082802,0.000082464,0x31
"Async 1","data",0.053169364,0.000082464,0x37
"Async 2","data",0.053169364,0.000082464,0x37
"Async 1","data",0.053255938,0.000082464,0x30
"Async 2","data",0.053255938,0.000082464,0x30
"Async 1","data",0.053342508,0.000082464,0x30
"Async 2","data",0.053342508,0.000082464,0x30
"Async 1","data",0.05342907,0.000082464,0x35
"Async 2","data",0.05342907,0.000082464,0x35
"Async 1","data",0.053515628,0.000082464,0x0D
"Async 2","data",0.053515628,0.000082464,0x0D
"Async 1","data",0.05360219,0.000082464,0x0A
"Async 2","data",0.05360219,0.000082464,0x0A
"Async 1","data",0.054617774,0.000082464,0x31
"Async 2","data",0.054617774,0.000082464,0x31
"Async 1","data",0.054704346,0.000082464,0x37
"Async 2","data",0.054704346,0.000082464,0x37
"Async 1","data",0.054790916,0.000082464,0x30
"Async 2","data",0.054790916,0.000082464,0x30
"Async 1","data",0.05487749,0.000082464,0x30
"Async 2","data",0.05487749,0.000082464,0x30
"Async 1","data",0.054964062,0.000082464,0x36
"Async 2","data",0.054964062,0.000082464,0x36
"Async 1","data",0.055050632,0.000082464,0x0D
"Async 2","data",0.055050632,0.000082464,0x0D
"Async 1","data",0.055137206,0.000082464,0x0A
"Async 2","data",0.055137206,0.000082464,0x0A
"Async 1","data",0.05683417,0.000082464,0x31
"Async 2","data",0.05683417,0.000082464,0x31
"Async 1","data",0.056920748,0.000082464,0x37
"Async 2","data",0.056920748,0.000082464,0x37
"Async 1","data",0.05700733,0.000082464,0x30
"Async 2","data",0.05700733,0.000082464,0x30
"Async 1","data",0.05709391,0.000082464,0x30
"Async 2","data",0.05709391,0.000082464,0x30
"Async 1","data",0.057180486,0.000082464,0x37
"Async 2","data",0.057180486,0.000082464,0x37
"Async 1","data",0.057267062,0.000082464,0x0D
"Async 2","data",0.057267062,0.000082464,0x0D
"Async 1","data",0.057353642,0.000082464,0x0A
"Async 2","data",0.057353642,0.000082464,0x0A
"Async 1","data",0.058364456,0.000082464,0x31
