name,type,start_time,duration,"data"
"Async 1","data",0.000592672,8.2464e-05,0x31
"Async 2","data",0.000592672,8.2464e-05,0x31
"Async 1","data",0.000679248,8.2464e-05,0x36
"Async 2","data",0.000679248,8.2464e-05,0x36
"Async 1","data",0.000765834,8.2464e-05,0x39
"Async 2","data",0.000765834,8.2464e-05,0x39
"Async 1","data",0.000852412,8.2464e-05,0x37
"Async 2","data",0.000852412,8.2464e-05,0x37
"Async 1","data",0.000938992,8.2464e-05,0x37
"Async 2","data",0.000938992,8.2464e-05,0x37
"Async 1","data",0.001025574,8.2464e-05,0x0D
"Async 2","data",0.001025574,8.2464e-05,0x0D
"Async 1","data",0.001112158,8.2464e-05,0x0A
"Async 2","data",0.001112158,8.2464e-05,0x0A
"Async 1","data",0.002120844,8.2464e-05,0x31
"Async 2","data",0.002120844,8.2464e-05,0x31
"Async 1","data",0.002207428,8.2464e-05,0x36
"Async 2","data",0.002207428,8.2464e-05,0x36
"Async 1","data",0.00229401,8.2464e-05,0x39
"Async 2","data",0.00229401,8.2464e-05,0x39
"Async 1","data",0.00238059,8.2464e-05,0x37
"Async 2","data",0.00238059,8.2464e-05,0x37
"Async 1","data",0.002467172,8.2464e-05,0x38
"Async 2","data",0.002467172,8.2464e-05,0x38
"Async 1","data",0.002553756,8.2464e-05,0x0D
"Async 2","data",0.002553756,8.2464e-05,0x0D
"Async 1","data",0.002640338,8.2464e-05,0x0A
"Async 2","data",0.002640338,8.2464e-05,0x0A
"Async 1","data",0.00433743,8.2464e-05,0x31
"Async 2","data",0.00433743,8.2464e-05,0x31
"Async 1","data",0.004424002,8.2464e-05,0x36
"Async 2","data",0.004424002,8.2464e-05,0x36
"Async 1","data",0.004510584,8.2464e-05,0x39
"Async 2","data",0.004510584,8.2464e-05,0x39
"Async 1","data",0.004597164,8.2464e-05,0x37
"Async 2","data",0.004597164,8.2464e-05,0x37
"Async 1","data",0.004683736,8.2464e-05,0x39
"Async 2","data",0.004683736,8.2464e-05,0x39
"Async 1","data",0.00477031,8.2464e-05,0x0D
"Async 2","data",0.00477031,8.2464e-05,0x0D
"Async 1","data",0.004856878,8.2464e-05,0x0A
"Async 2","data",0.004856878,8.2464e-05,0x0A
"Async 1","data",0.00587203,8.2464e-05,0x31
"Async 2","data",0.00587203,8.2464e-05,0x31
"Async 1","data",0.005958606,8.2464e-05,0x36
"Async 2","data",0.005958606,8.2464e-05,0x36
"Async 1","data",0.006045182,8.2464e-05,0x39
"Async 2","data",0.006045182,8.2464e-05,0x39
"Async 1","data",0.00613177,8.2464e-05,0x38
"Async 2","data",0.00613177,8.2464e-05,0x38
"Async 1","data",0.006218352,8.2464e-05,0x30
"Async 2","data",0.006218352,8.2464e-05,0x30
"Async 1","data",0.006304934,8.2464e-05,0x0D
"Async 2","data",0.006304934,8.2464e-05,0x0D
"Async 1","data",0.006391514,8.2464e-05,0x0A
"Async 2","data",0.006391514,8.2464e-05,0x0A
"Async 1","data",0.008088466,8.2464e-05,0x31
"Async 2","data",0.008088466,8.2464e-05,0x31
"Async 1","data",0.008175024,8.2464e-05,0x36
"Async 2","data",0.008175024,8.2464e-05,0x36
"Async 1","data",0.008261592,8.2464e-05,0x39
"Async 2","data",0.008261592,8.2464e-05,0x39
"Async 1","data",0.008348164,8.2464e-05,0x38
"Async 2","data",0.008348164,8.2464e-05,0x38
"Async 1","data",0.008434732,8.2464e-05,0x31
"Async 2","data",0.008434732,8.2464e-05,0x31
"Async 1","data",0.008521302,8.2464e-05,0x0D
"Async 2","data",0.008521302,8.2464e-05,0x0D
"Async 1","data",0.008607876,8.2464e-05,0x0A
"Async 2","data",0.008607876,8.2464e-05,0x0A
"Async 1","data",0.009622346,8.2464e-05,0x31
"Async 2","data",0.009622346,8.2464e-05,0x31
"Async 1","data",0.009708912,8.2464e-05,0x36
"Async 2","data",0.009708912,8.2464e-05,0x36
"Async 1","data",0.009795474,8.2464e-05,0x39
"Async 2","data",0.009795474,8.2464e-05,0x39
"Async 1","data",0.009882038,8.2464e-05,0x38
"Async 2","data",0.009882038,8.2464e-05,0x38
"Async 1","data",0.009968598,8.2464e-05,0x32
"Async 2","data",0.009968598,8.2464e-05,0x32
"Async 1","data",0.010055162,8.2464e-05,0x0D
"Async 2","data",0.010055162,8.2464e-05,0x0D
"Async 1","data",0.01014172,8.2464e-05,0x0A
"Async 2","data",0.01014172,8.2464e-05,0x0A
"Async 1","data",0.011840226,8.2464e-05,0x31
"Async 2","data",0.011840226,8.2464e-05,0x31
"Async 1","data",0.0119268,8.2464e-05,0x36
"Async 2","data",0.0119268,8.2464e-05,0x36
"Async 1","data",0.012013384,8.2464e-05,0x39
"Async 2","data",0.012013384,8.2464e-05,0x39
"Async 1","data",0.012099966,8.2464e-05,0x38
"Async 2","data",0.012099966,8.2464e-05,0x38
"Async 1","data",0.012186538,8.2464e-05,0x33
"Async 2","data",0.012186538,8.2464e-05,0x33
"Async 1","data",0.012273112,8.2464e-05,0x0D
"Async 2","data",0.012273112,8.2464e-05,0x0D
"Async 1","data",0.012359684,8.2464e-05,0x0A
"Async 2","data",0.012359684,8.2464e-05,0x0A
"Async 1","data",0.013368866,8.2464e-05,0x31
"Async 2","data",0.013368866,8.2464e-05,0x31
"Async 1","data",0.01345545,8.2464e-05,0x36
"Async 2","data",0.01345545,8.2464e-05,0x36
"Async 1","data",0.013542024,8.2464e-05,0x39
"Async 2","data",0.013542024,8.2464e-05,0x39
"Async 1","data",0.01362861,8.2464e-05,0x38
"Async 2","data",0.01362861,8.2464e-05,0x38
"Async 1","data",0.013715192,8.2464e-05,0x34
"Async 2","data",0.013715192,8.2464e-05,0x34
"Async 1","data",0.013801772,8.2464e-05,0x0D
"Async 2","data",0.013801772,8.2464e-05,0x0D
"Async 1","data",0.013888362,8.2464e-05,0x0A
"Async 2","data",0.013888362,8.2464e-05,0x0A
"Async 1","data",0.015591436,8.2464e-05,0x31
"Async 2","data",0.015591436,8.2464e-05,0x31
"Async 1","data",0.01567802,8.2464e-05,0x36
"Async 2","data",0.01567802,8.2464e-05,0x36
"Async 1","data",0.015764604,8.2464e-05,0x39
"Async 2","data",0.015764604,8.2464e-05,0x39
"Async 1","data",0.015851194,8.2464e-05,0x38
"Async 2","data",0.015851194,8.2464e-05,0x38
"Async 1","data",0.015937786,8.2464e-05,0x35
"Async 2","data",0.015937786,8.2464e-05,0x35
"Async 1","data",0.016024374,8.2464e-05,0x0D
"Async 2","data",0.016024374,8.2464e-05,0x0D
"Async 1","data",0.016110962,8.2464e-05,0x0A
"Async 2","data",0.016110962,8.2464e-05,0x0A
"Async 1","data",0.01712021,8.2464e-05,0x31
"Async 2","data",0.01712021,8.2464e-05,0x31
"Async 1","data",0.017206792,8.2464e-05,0x36
"Async 2","data",0.017206792,8.2464e-05,0x36
"Async 1","data",0.017293378,8.2464e-05,0x39
"Async 2","data",0.017293378,8.2464e-05,0x39
"Async 1","data",0.017379956,8.2464e-05,0x38
"Async 2","data",0.017379956,8.2464e-05,0x38
"Async 1","data",0.01746654,8.2464e-05,0x36
"Async 2","data",0.01746654,8.2464e-05,0x36
"Async 1","data",0.017553122,8.2464e-05,0x0D
"Async 2","data",0.017553122,8.2464e-05,0x0D
"Async 1","data",0.017639706,8.2464e-05,0x0A
"Async 2","data",0.017639706,8.2464e-05,0x0A
"Async 1","data",0.019336304,8.2464e-05,0x31
"Async 2","data",0.019336304,8.2464e-05,0x31
"Async 1","data",0.019422886,8.2464e-05,0x36
"Async 2","data",0.019422886,8.2464e-05,0x36
"Async 1","data",0.019509474,8.2464e-05,0x39
"Async 2","data",0.019509474,8.2464e-05,0x39
"Async 1","data",0.019596064,8.2464e-05,0x38
"Async 2","data",0.019596064,8.2464e-05,0x38
"Async 1","data",0.019682646,8.2464e-05,0x37
"Async 2","data",0.019682646,8.2464e-05,0x37
"Async 1","data",0.019769226,8.2464e-05,0x0D
"Async 2","data",0.019769226,8.2464e-05,0x0D
"Async 1","data",0.019855814,8.2464e-05,0x0A
"Async 2","data",0.019855814,8.2464e-05,0x0A
"Async 1","data",0.02087052,8.2464e-05,0x31
"Async 2","data",0.02087052,8.2464e-05,0x31
"Async 1","data",0.020957104,8.2464e-05,0x36
"Async 2","data",0.020957104,8.2464e-05,0x36
"Async 1","data",0.021043688,8.2464e-05,0x39
"Async 2","data",0.021043688,8.2464e-05,0x39
"Async 1","data",0.021130278,8.2464e-05,0x38
"Async 2","data",0.021130278,8.2464e-05,0x38
"Async 1","data",0.021216852,8.2464e-05,0x38
"Async 2","data",0.021216852,8.2464e-05,0x38
"Async 1","data",0.021303432,8.2464e-05,0x0D
"Async 2","data",0.021303432,8.2464e-05,0x0D
"Async 1","data",0.021390018,8.2464e-05,0x0A
"Async 2","data",0.021390018,8.2464e-05,0x0A
"Async 1","data",0.023087774,8.2464e-05,0x31
"Async 2","data",0.023087774,8.2464e-05,0x31
"Async 1","data",0.023174348,8.2464e-05,0x36
"Async 2","data",0.023174348,8.2464e-05,0x36
"Async 1","data",0.02326093,8.2464e-05,0x39
"Async 2","data",0.02326093,8.2464e-05,0x39
"Async 1","data",0.02334751,8.2464e-05,0x38
"Async 2","data",0.02334751,8.2464e-05,0x38
"Async 1","data",0.023434082,8.2464e-05,0x39
"Async 2","data",0.023434082,8.2464e-05,0x39
"Async 1","data",0.023520668,8.2464e-05,0x0D
"Async 2","data",0.023520668,8.2464e-05,0x0D
"Async 1","data",0.023607254,8.2464e-05,0x0A
"Async 2","data",0.023607254,8.2464e-05,0x0A
"Async 1","data",0.02462188,8.2464e-05,0x31
"Async 2","data",0.02462188,8.2464e-05,0x31
"Async 1","data",0.024708458,8.2464e-05,0x36
"Async 2","data",0.024708458,8.2464e-05,0x36
"Async 1","data",0.024795032,8.2464e-05,0x39
"Async 2","data",0.024795032,8.2464e-05,0x39
"Async 1","data",0.024881616,8.2464e-05,0x39
"Async 2","data",0.024881616,8.2464e-05,0x39
"Async 1","data",0.024968202,8.2464e-05,0x30
"Async 2","data",0.024968202,8.2464e-05,0x30
"Async 1","data",0.025054786,8.2464e-05,0x0D
"Async 2","data",0.025054786,8.2464e-05,0x0D
"Async 1","data",0.025141362,8.2464e-05,0x0A
"Async 2","data",0.025141362,8.2464e-05,0x0A
"Async 1","data",0.026838474,8.2464e-05,0x31
"Async 2","data",0.026838474,8.2464e-05,0x31
"Async 1","data",0.026925062,8.2464e-05,0x36
"Async 2","data",0.026925062,8.2464e-05,0x36
"Async 1","data",0.02701164,8.2464e-05,0x39
"Async 2","data",0.02701164,8.2464e-05,0x39
"Async 1","data",0.027098224,8.2464e-05,0x39
"Async 2","data",0.027098224,8.2464e-05,0x39
"Async 1","data",0.027184814,8.2464e-05,0x31
"Async 2","data",0.027184814,8.2464e-05,0x31
"Async 1","data",0.027271406,8.2464e-05,0x0D
"Async 2","data",0.027271406,8.2464e-05,0x0D
"Async 1","data",0.027357992,8.2464e-05,0x0A
"Async 2","data",0.027357992,8.2464e-05,0x0A
"Async 1","data",0.02836725,8.2464e-05,0x31
"Async 2","data",0.02836725,8.2464e-05,0x31
"Async 1","data",0.028453838,8.2464e-05,0x36
"Async 2","data",0.028453838,8.2464e-05,0x36
"Async 1","data",0.028540424,8.2464e-05,0x39
"Async 2","data",0.028540424,8.2464e-05,0x39
"Async 1","data",0.028627008,8.2464e-05,0x39
"Async 2","data",0.028627008,8.2464e-05,0x39
"Async 1","data",0.028713594,8.2464e-05,0x32
"Async 2","data",0.028713594,8.2464e-05,0x32
"Async 1","data",0.028800174,8.2464e-05,0x0D
"Async 2","data",0.028800174,8.2464e-05,0x0D
"Async 1","data",0.028886758,8.2464e-05,0x0A
"Async 2","data",0.028886758,8.2464e-05,0x0A
"Async 1","data",0.030589264,8.2464e-05,0x31
"Async 2","data",0.030589264,8.2464e-05,0x31
"Async 1","data",0.030675832,8.2464e-05,0x36
"Async 2","data",0.030675832,8.2464e-05,0x36
"Async 1","data",0.030762404,8.2464e-05,0x39
"Async 2","data",0.030762404,8.2464e-05,0x39
"Async 1","data",0.03084898,8.2464e-05,0x39
"Async 2","data",0.03084898,8.2464e-05,0x39
"Async 1","data",0.030935554,8.2464e-05,0x33
"Async 2","data",0.030935554,8.2464e-05,0x33
"Async 1","data",0.031022134,8.2464e-05,0x0D
"Async 2","data",0.031022134,8.2464e-05,0x0D
"Async 1","data",0.03110871,8.2464e-05,0x0A
"Async 2","data",0.03110871,8.2464e-05,0x0A
"Async 1","data",0.032117864,8.2464e-05,0x31
"Async 2","data",0.032117864,8.2464e-05,0x31
"Async 1","data",0.032204436,8.2464e-05,0x36
"Async 2","data",0.032204436,8.2464e-05,0x36
"Async 1","data",0.032291014,8.2464e-05,0x39
"Async 2","data",0.032291014,8.2464e-05,0x39
"Async 1","data",0.032377594,8.2464e-05,0x39
"Async 2","data",0.032377594,8.2464e-05,0x39
"Async 1","data",0.032464172,8.2464e-05,0x34
"Async 2","data",0.032464172,8.2464e-05,0x34
"Async 1","data",0.032550748,8.2464e-05,0x0D
"Async 2","data",0.032550748,8.2464e-05,0x0D
"Async 1","data",0.032637324,8.2464e-05,0x0A
"Async 2","data",0.032637324,8.2464e-05,0x0A
"Async 1","data",0.034333924,8.2464e-05,0x31
"Async 2","data",0.034333924,8.2464e-05,0x31
"Async 1","data",0.034420496,8.2464e-05,0x36
"Async 2","data",0.034420496,8.2464e-05,0x36
"Async 1","data",0.03450708,8.2464e-05,0x39
"Async 2","data",0.03450708,8.2464e-05,0x39
"Async 1","data",0.03459365,8.2464e-05,0x39
"Async 2","data",0.03459365,8.2464e-05,0x39
"Async 1","data",0.034680214,8.2464e-05,0x35
"Async 2","data",0.034680214,8.2464e-05,0x35
"Async 1","data",0.034766792,8.2464e-05,0x0D
"Async 2","data",0.034766792,8.2464e-05,0x0D
"Async 1","data",0.03485337,8.2464e-05,0x0A
"Async 2","data",0.03485337,8.2464e-05,0x0A
"Async 1","data",0.03586851,8.2464e-05,0x31
"Async 2","data",0.03586851,8.2464e-05,0x31
"Async 1","data",0.035955082,8.2464e-05,0x36
"Async 2","data",0.035955082,8.2464e-05,0x36
"Async 1","data",0.036041666,8.2464e-05,0x39
"Async 2","data",0.036041666,8.2464e-05,0x39
"Async 1","data",0.03612824,8.2464e-05,0x39
"Async 2","data",0.03612824,8.2464e-05,0x39
"Async 1","data",0.036214824,8.2464e-05,0x36
"Async 2","data",0.036214824,8.2464e-05,0x36
"Async 1","data",0.036301406,8.2464e-05,0x0D
"Async 2","data",0.036301406,8.2464e-05,0x0D
"Async 1","data",0.036387994,8.2464e-05,0x0A
"Async 2","data",0.036387994,8.2464e-05,0x0A
"Async 1","data",0.03808506,8.2464e-05,0x31
"Async 2","data",0.03808506,8.2464e-05,0x31
"Async 1","data",0.03817164,8.2464e-05,0x36
"Async 2","data",0.03817164,8.2464e-05,0x36
"Async 1","data",0.038258216,8.2464e-05,0x39
"Async 2","data",0.038258216,8.2464e-05,0x39
"Async 1","data",0.038344802,8.2464e-05,0x39
"Async 2","data",0.038344802,8.2464e-05,0x39
"Async 1","data",0.038431378,8.2464e-05,0x37
"Async 2","data",0.038431378,8.2464e-05,0x37
"Async 1","data",0.038517956,8.2464e-05,0x0D
"Async 2","data",0.038517956,8.2464e-05,0x0D
"Async 1","data",0.038604538,8.2464e-05,0x0A
"Async 2","data",0.038604538,8.2464e-05,0x0A
"Async 1","data",0.039619174,8.2464e-05,0x31
"Async 2","data",0.039619174,8.2464e-05,0x31
"Async 1","data",0.039705752,8.2464e-05,0x36
"Async 2","data",0.039705752,8.2464e-05,0x36
"Async 1","data",0.03979234,8.2464e-05,0x39
"Async 2","data",0.03979234,8.2464e-05,0x39
"Async 1","data",0.039878922,8.2464e-05,0x39
"Async 2","data",0.039878922,8.2464e-05,0x39
"Async 1","data",0.039965498,8.2464e-05,0x38
"Async 2","data",0.039965498,8.2464e-05,0x38
"Async 1","data",0.04005208,8.2464e-05,0x0D
"Async 2","data",0.04005208,8.2464e-05,0x0D
"Async 1","data",0.040138656,8.2464e-05,0x0A
"Async 2","data",0.040138656,8.2464e-05,0x0A
"Async 1","data",0.041836336,8.2464e-05,0x31
"Async 2","data",0.041836336,8.2464e-05,0x31
"Async 1","data",0.041922922,8.2464e-05,0x36
"Async 2","data",0.041922922,8.2464e-05,0x36
"Async 1","data",0.042009498,8.2464e-05,0x39
"Async 2","data",0.042009498,8.2464e-05,0x39
"Async 1","data",0.042096084,8.2464e-05,0x39
"Async 2","data",0.042096084,8.2464e-05,0x39
"Async 1","data",0.042182672,8.2464e-05,0x39
"Async 2","data",0.042182672,8.2464e-05,0x39
"Async 1","data",0.04226926,8.2464e-05,0x0D
"Async 2","data",0.04226926,8.2464e-05,0x0D
"Async 1","data",0.042355842,8.2464e-05,0x0A
"Async 2","data",0.042355842,8.2464e-05,0x0A
"Async 1","data",0.043364588,8.2464e-05,0x31
"Async 2","data",0.043364588,8.2464e-05,0x31
"Async 1","data",0.043451172,8.2464e-05,0x37
"Async 2","data",0.043451172,8.2464e-05,0x37
"Async 1","data",0.043537754,8.2464e-05,0x30
"Async 2","data",0.043537754,8.2464e-05,0x30
"Async 1","data",0.043624338,8.2464e-05,0x30
"Async 2","data",0.043624338,8.2464e-05,0x30
"Async 1","data",0.04371093,8.2464e-05,0x30
"Async 2","data",0.04371093,8.2464e-05,0x30
"Async 1","data",0.043797516,8.2464e-05,0x0D
"Async 2","data",0.043797516,8.2464e-05,0x0D
"Async 1","data",0.043884098,8.2464e-05,0x0A
"Async 2","data",0.043884098,8.2464e-05,0x0A
"Async 1","data",0.045586656,8.2464e-05,0x31
"Async 2","data",0.045586656,8.2464e-05,0x31
"Async 1","data",0.045673234,8.2464e-05,0x37
"Async 2","data",0.045673234,8.2464e-05,0x37
"Async 1","data",0.045759818,8.2464e-05,0x30
"Async 2","data",0.045759818,8.2464e-05,0x30
"Async 1","data",0.045846402,8.2464e-05,0x30
"Async 2","data",0.045846402,8.2464e-05,0x30
"Async 1","data",0.04593299,8.2464e-05,0x31
"Async 2","data",0.04593299,8.2464e-05,0x31
"Async 1","data",0.046019576,8.2464e-05,0x0D
"Async 2","data",0.046019576,8.2464e-05,0x0D
"Async 1","data",0.04610616,8.2464e-05,0x0A
"Async 2","data",0.04610616,8.2464e-05,0x0A
"Async 1","data",0.047114858,8.2464e-05,0x31
"Async 2","data",0.047114858,8.2464e-05,0x31
"Async 1","data",0.047201446,8.2464e-05,0x37
"Async 2","data",0.047201446,8.2464e-05,0x37
"Async 1","data",0.047288038,8.2464e-05,0x30
"Async 2","data",0.047288038,8.2464e-05,0x30
"Async 1","data",0.047374636,8.2464e-05,0x30
"Async 2","data",0.047374636,8.2464e-05,0x30
"Async 1","data",0.04746123,8.2464e-05,0x32
"Async 2","data",0.04746123,8.2464e-05,0x32
"Async 1","data",0.047547826,8.2464e-05,0x0D
"Async 2","data",0.047547826,8.2464e-05,0x0D
"Async 1","data",0.047634418,8.2464e-05,0x0A
"Async 2","data",0.047634418,8.2464e-05,0x0A
"Async 1","data",0.049332262,8.2464e-05,0x31
"Async 2","data",0.049332262,8.2464e-05,0x31
"Async 1","data",0.049418854,8.2464e-05,0x37
"Async 2","data",0.049418854,8.2464e-05,0x37
"Async 1","data",0.049505444,8.2464e-05,0x30
"Async 2","data",0.049505444,8.2464e-05,0x30
"Async 1","data",0.049592038,8.2464e-05,0x30
"Async 2","data",0.049592038,8.2464e-05,0x30
"Async 1","data",0.049678626,8.2464e-05,0x33
"Async 2","data",0.049678626,8.2464e-05,0x33
"Async 1","data",0.04976521,8.2464e-05,0x0D
"Async 2","data",0.04976521,8.2464e-05,0x0D
"Async 1","data",0.049851808,8.2464e-05,0x0A
"Async 2","data",0.049851808,8.2464e-05,0x0A
"Async 1","data",0.050866512,8.2464e-05,0x31
"Async 2","data",0.050866512,8.2464e-05,0x31
"Async 1","data",0.050953094,8.2464e-05,0x37
"Async 2","data",0.050953094,8.2464e-05,0x37
"Async 1","data",0.051039662,8.2464e-05,0x30
"Async 2","data",0.051039662,8.2464e-05,0x30
"Async 1","data",0.051126232,8.2464e-05,0x30
"Async 2","data",0.051126232,8.2464e-05,0x30
"Async 1","data",0.051212802,8.2464e-05,0x34
"Async 2","data",0.051212802,8.2464e-05,0x34
"Async 1","data",0.051299372,8.2464e-05,0x0D
"Async 2","data",0.051299372,8.2464e-05,0x0D
"Async 1","data",0.05138594,8.2464e-05,0x0A
"Async 2","data",0.05138594,8.2464e-05,0x0A
"Async 1","data",0.053082802,8.2464e-05,0x31
"Async 2","data",0.053082802,8.2464e-05,0x31
"Async 1","data",0.053169364,8.2464e-05,0x37
"Async 2","data",0.053169364,8.2464e-05,0x37
"Async 1","data",0.053255938,8.2464e-05,0x30
"Async 2","data",0.053255938,8.2464e-05,0x30
"Async 1","data",0.053342508,8.2464e-05,0x30
"Async 2","data",0.053342508,8.2464e-05,0x30
"Async 1","data",0.05342907,8.2464e-05,0x35
"Async 2","data",0.05342907,8.2464e-05,0x35
"Async 1","data",0.053515628,8.2464e-05,0x0D
"Async 2","data",0.053515628,8.2464e-05,0x0D
"Async 1","data",0.05360219,8.2464e-05,0x0A
"Async 2","data",0.05360219,8.2464e-05,0x0A
"Async 1","data",0.054617774,8.2464e-05,0x31
"Async 2","data",0.054617774,8.2464e-05,0x31
"Async 1","data",0.054704346,8.2464e-05,0x37
"Async 2","data",0.054704346,8.2464e-05,0x37
"Async 1","data",0.054790916,8.2464e-05,0x30
"Async 2","data",0.054790916,8.2464e-05,0x30
"Async 1","data",0.05487749,8.2464e-05,0x30
"Async 2","data",0.05487749,8.2464e-05,0x30
"Async 1","data",0.054964062,8.2464e-05,0x36
"Async 2","data",0.054964062,8.2464e-05,0x36
"Async 1","data",0.055050632,8.2464e-05,0x0D
"Async 2","data",0.055050632,8.2464e-05,0x0D
"Async 1","data",0.055137206,8.2464e-05,0x0A
"Async 2","data",0.055137206,8.2464e-05,0x0A
"Async 1","data",0.05683417,8.2464e-05,0x31
"Async 2","data",0.05683417,8.2464e-05,0x31
"Async 1","data",0.056920748,8.2464e-05,0x37
"Async 2","data",0.056920748,8.2464e-05,0x37
"Async 1","data",0.05700733,8.2464e-05,0x30
"Async 2","data",0.05700733,8.2464e-05,0x30
"Async 1","data",0.05709391,8.2464e-05,0x30
"Async 2","data",0.05709391,8.2464e-05,0x30
"Async 1","data",0.057180486,8.2464e-05,0x37
"Async 2","data",0.057180486,8.2464e-05,0x37
"Async 1","data",0.057267062,8.2464e-05,0x0D
"Async 2","data",0.057267062,8.2464e-05,0x0D
"Async 1","data",0.057353642,8.2464e-05,0x0A
"Async 2","data",0.057353642,8.2464e-05,0x0A
"Async 1","data",0.058364456,8.2464e-05,0x31
"Async 2","data",0.058364456,8.2464e-05,0x31
"Async 1","data",0.058451042,8.2464e-05,0x37
"Async 2","data",0.058451042,8.2464e-05,0x37
"Async 1","data",0.058537632,8.2464e-05,0x30
"Async 2","data",0.058537632,8.2464e-05,0x30
"Async 1","data",0.058624222,8.2464e-05,0x30
"Async 2","data",0.058624222,8.2464e-05,0x30
"Async 1","data",0.05871081,8.2464e-05,0x38
"Async 2","data",0.05871081,8.2464e-05,0x38
"Async 1","data",0.058797406,8.2464e-05,0x0D
