name,type,start_time,duration,"data"
"Async Serial","data",0.000852412,8.2464e-05,"7"
"Async Serial","data",0.000938992,8.2464e-05,"7"
"Async Serial","data",0.00238059,8.2464e-05,"7"
"Async Serial","data",0.004597164,8.2464e-05,"7"
"Async Serial","data",0.019682646,8.2464e-05,"7"
"Async Serial","data",0.038431378,8.2464e-05,"7"
"Async Serial","data",0.043451172,8.2464e-05,"7"
"Async Serial","data",0.045673234,8.2464e-05,"7"
"Async Serial","data",0.047201446,8.2464e-05,"7"
"Async Serial","data",0.049418854,8.2464e-05,"7"
"Async Serial","data",0.050953094,8.2464e-05,"7"
"Async Serial","data",0.053169364,8.2464e-05,"7"
"Async Serial","data",0.054704346,8.2464e-05,"7"
"Async Serial","data",0.056920748,8.2464e-05,"7"
"Async Serial","data",0.057180486,8.2464e-05,"7"
"Async Serial","data",0.058451042,8.2464e-05,"7"
"Async Serial","data",0.060674314,8.2464e-05,"7"
"Async Serial","data",0.06220242,8.2464e-05,"7"
"Async Serial","data",0.064418178,8.2464e-05,"7"
"Async Serial","data",0.0659528,8.2464e-05,"7"
"Async Serial","data",0.068169584,8.2464e-05,"7"
"Async Serial","data",0.06970379,8.2464e-05,"7"
"Async Serial","data",0.071920274,8.2464e-05,"7"
"Async Serial","data",0.073450508,8.2464e-05,"7"
"Async Serial","data",0.075672584,8.2464e-05,"7"
"Async Serial","data",0.07593233,8.2464e-05,"7"
"Async Serial","data",0.077201336,8.2464e-05,"7"
"Async Serial","data",0.07941955,8.2464e-05,"7"
"Async Serial","data",0.0809536,8.2464e-05,"7"
"Async Serial","data",0.083171284,8.2464e-05,"7"
"Async Serial","data",0.084705306,8.2464e-05,"7"
"Async Serial","data",0.086922394,8.2464e-05,"7"
"Async Serial","data",0.088452698,8.2464e-05,"7"
"Async Serial","data",0.09067359,8.2464e-05,"7"
"Async Serial","data",0.092202304,8.2464e-05,"7"
"Async Serial","data",0.094418442,8.2464e-05,"7"
"Async Serial","data",0.094678196,8.2464e-05,"7"
"Async Serial","data",0.095952706,8.2464e-05,"7"
"Async Serial","data",0.098169372,8.2464e-05,"7"
"Async Serial","data",0.09970403,8.2464e-05,"7"
"Async Serial","data",0.10192054,8.2464e-05,"7"
"Async Serial","data",0.103450876,8.2464e-05,"7"
"Async Serial","data",0.105671936,8.2464e-05,"7"
"Async Serial","data",0.1072007,8.2464e-05,"7"
"Async Serial","data",0.109418412,8.2464e-05,"7"
"Async Serial","data",0.110950958,8.2464e-05,"7"
"Async Serial","data",0.113167538,8.2464e-05,"7"
"Async Serial","data",0.113427276,8.2464e-05,"7"
"Async Serial","data",0.114702736,8.2464e-05,"7"
"Async Serial","data",0.116919352,8.2464e-05,"7"
"Async Serial","data",0.118449726,8.2464e-05,"7"
"Async Serial","data",0.120669966,8.2464e-05,"7"
"Async Serial","data",0.122198614,8.2464e-05,"7"
"Async Serial","data",0.124417366,8.2464e-05,"7"
"Async Serial","data",0.125949312,8.2464e-05,"7"
"Async Serial","data",0.128167086,8.2464e-05,"7"
"Async Serial","data",0.129701212,8.2464e-05,"7"
"Async Serial","data",0.131918224,8.2464e-05,"7"
"Async Serial","data",0.13217796,8.2464e-05,"7"
"Async Serial","data",0.133449034,8.2464e-05,"7"
"Async Serial","data",0.135669434,8.2464e-05,"7"
"Async Serial","data",0.137198222,8.2464e-05,"7"
"Async Serial","data",0.139417112,8.2464e-05,"7"
"Async Serial","data",0.14094951,8.2464e-05,"7"
"Async Serial","data",0.143165402,8.2464e-05,"7"
"Async Serial","data",0.144700034,8.2464e-05,"7"
"Async Serial","data",0.146918336,8.2464e-05,"7"
"Async Serial","data",0.148449108,8.2464e-05,"7"
"Async Serial","data",0.150669446,8.2464e-05,"7"
"Async Serial","data",0.150929204,8.2464e-05,"7"
"Async Serial","data",0.152198104,8.2464e-05,"7"
"Async Serial","data",0.154416256,8.2464e-05,"7"
"Async Serial","data",0.155948742,8.2464e-05,"7"
"Async Serial","data",0.158165156,8.2464e-05,"7"
"Async Serial","data",0.15969961,8.2464e-05,"7"
"Async Serial","data",0.161915954,8.2464e-05,"7"
"Async Serial","data",0.16344628,8.2464e-05,"7"
"Async Serial","data",0.165666202,8.2464e-05,"7"
"Async Serial","data",0.167194924,8.2464e-05,"7"
"Async Serial","data",0.169413316,8.2464e-05,"7"
"Async Serial","data",0.169673074,8.2464e-05,"7"
"Async Serial","data",0.170945346,8.2464e-05,"7"
"Async Serial","data",0.17316256,8.2464e-05,"7"
"Async Serial","data",0.174696678,8.2464e-05,"7"
"Async Serial","data",0.174869834,8.2464e-05,"7"
"Async Serial","data",0.1769137,8.2464e-05,"7"
"Async Serial","data",0.177086858,8.2464e-05,"7"
"Async Serial","data",0.17844559,8.2464e-05,"7"
"Async Serial","data",0.17861875,8.2464e-05,"7"
"Async Serial","data",0.180667042,8.2464e-05,"7"
"Async Serial","data",0.180840198,8.2464e-05,"7"
"Async Serial","data",0.182195154,8.2464e-05,"7"
"Async Serial","data",0.18236832,8.2464e-05,"7"
"Async Serial","data",0.18441377,8.2464e-05,"7"
"Async Serial","data",0.18458693,8.2464e-05,"7"
"Async Serial","data",0.185946198,8.2464e-05,"7"
"Async Serial","data",0.186119348,8.2464e-05,"7"
"Async Serial","data",0.188162568,8.2464e-05,"7"
"Async Serial","data",0.188335706,8.2464e-05,"7"
"Async Serial","data",0.188422276,8.2464e-05,"7"
"Async Serial","data",0.189697584,8.2464e-05,"7"
"Async Serial","data",0.189870762,8.2464e-05,"7"
"Async Serial","data",0.191914162,8.2464e-05,"7"
"Async Serial","data",0.192087328,8.2464e-05,"7"
"Async Serial","data",0.193443994,8.2464e-05,"7"
"Async Serial","data",0.195664352,8.2464e-05,"7"
"Async Serial","data",0.197192426,8.2464e-05,"7"
"Async Serial","data",0.199411154,8.2464e-05,"7"
"Async Serial","data",0.200943086,8.2464e-05,"7"
"Async Serial","data",0.203159106,8.2464e-05,"7"
"Async Serial","data",0.204693122,8.2464e-05,"7"
"Async Serial","data",0.206909512,8.2464e-05,"7"
"Async Serial","data",0.207169262,8.2464e-05,"7"
"Async Serial","data",0.208439744,8.2464e-05,"7"
"Async Serial","data",0.210660044,8.2464e-05,"7"
"Async Serial","data",0.212188742,8.2464e-05,"7"
"Async Serial","data",0.21440749,8.2464e-05,"7"
"Async Serial","data",0.215939944,8.2464e-05,"7"
"Async Serial","data",0.218157096,8.2464e-05,"7"
"Async Serial","data",0.219691114,8.2464e-05,"7"
"Async Serial","data",0.221908002,8.2464e-05,"7"
"Async Serial","data",0.22343822,8.2464e-05,"7"
"Async Serial","data",0.225659176,8.2464e-05,"7"
"Async Serial","data",0.22591892,8.2464e-05,"7"
"Async Serial","data",0.22718731,8.2464e-05,"7"
"Async Serial","data",0.229407572,8.2464e-05,"7"
"Async Serial","data",0.230941678,8.2464e-05,"7"
"Async Serial","data",0.233158406,8.2464e-05,"7"
"Async Serial","data",0.234692518,8.2464e-05,"7"
"Async Serial","data",0.236909658,8.2464e-05,"7"
"Async Serial","data",0.238439976,8.2464e-05,"7"
"Async Serial","data",0.240660734,8.2464e-05,"7"
"Async Serial","data",0.24218941,8.2464e-05,"7"
"Async Serial","data",0.244407616,8.2464e-05,"7"
"Async Serial","data",0.244667362,8.2464e-05,"7"
"Async Serial","data",0.245939602,8.2464e-05,"7"
"Async Serial","data",0.248157066,8.2464e-05,"7"
"Async Serial","data",0.249691068,8.2464e-05,"7"
"Async Serial","data",0.251907704,8.2464e-05,"7"
"Async Serial","data",0.253438046,8.2464e-05,"7"
"Async Serial","data",0.255658422,8.2464e-05,"7"
"Async Serial","data",0.257186458,8.2464e-05,"7"
"Async Serial","data",0.259404962,8.2464e-05,"7"
"Async Serial","data",0.260937822,8.2464e-05,"7"
"Async Serial","data",0.26315353,8.2464e-05,"7"
"Async Serial","data",0.263413204,8.2464e-05,"7"
"Async Serial","data",0.264687868,8.2464e-05,"7"
"Async Serial","data",0.266904538,8.2464e-05,"7"
"Async Serial","data",0.26843489,8.2464e-05,"7"
"Async Serial","data",0.270655922,8.2464e-05,"7"
"Async Serial","data",0.272184168,8.2464e-05,"7"
"Async Serial","data",0.274402944,8.2464e-05,"7"
"Async Serial","data",0.275935366,8.2464e-05,"7"
"Async Serial","data",0.278152016,8.2464e-05,"7"
"Async Serial","data",0.279685662,8.2464e-05,"7"
"Async Serial","data",0.281902454,8.2464e-05,"7"
"Async Serial","data",0.28216222,8.2464e-05,"7"
"Async Serial","data",0.283433434,8.2464e-05,"7"
"Async Serial","data",0.285653906,8.2464e-05,"7"
"Async Serial","data",0.287184284,8.2464e-05,"7"
"Async Serial","data",0.289403098,8.2464e-05,"7"
"Async Serial","data",0.290935694,8.2464e-05,"7"
"Async Serial","data",0.293152492,8.2464e-05,"7"
"Async Serial","data",0.294686786,8.2464e-05,"7"
"Async Serial","data",0.296902898,8.2464e-05,"7"
"Async Serial","data",0.29843274,8.2464e-05,"7"
"Async Serial","data",0.30065362,8.2464e-05,"7"
"Async Serial","data",0.30091337,8.2464e-05,"7"
"Async Serial","data",0.302181828,8.2464e-05,"7"
"Async Serial","data",0.304400164,8.2464e-05,"7"
"Async Serial","data",0.305932286,8.2464e-05,"7"
"Async Serial","data",0.308149094,8.2464e-05,"7"
"Async Serial","data",0.309685032,8.2464e-05,"7"
"Async Serial","data",0.31190141,8.2464e-05,"7"
"Async Serial","data",0.313431908,8.2464e-05,"7"
"Async Serial","data",0.315652476,8.2464e-05,"7"
"Async Serial","data",0.31718138,8.2464e-05,"7"
"Async Serial","data",0.319400414,8.2464e-05,"7"
"Async Serial","data",0.319660178,8.2464e-05,"7"
"Async Serial","data",0.320933082,8.2464e-05,"7"
"Async Serial","data",0.32315156,8.2464e-05,"7"
"Async Serial","data",0.324685886,8.2464e-05,"7"
"Async Serial","data",0.326902682,8.2464e-05,"7"
"Async Serial","data",0.32843319,8.2464e-05,"7"
"Async Serial","data",0.330653722,8.2464e-05,"7"
"Async Serial","data",0.332181878,8.2464e-05,"7"
"Async Serial","data",0.33440122,8.2464e-05,"7"
"Async Serial","data",0.3359333,8.2464e-05,"7"
"Async Serial","data",0.338150048,8.2464e-05,"7"
"Async Serial","data",0.338409796,8.2464e-05,"7"
"Async Serial","data",0.339685886,8.2464e-05,"7"
"Async Serial","data",0.341902416,8.2464e-05,"7"
"Async Serial","data",0.343433088,8.2464e-05,"7"
"Async Serial","data",0.34565325,8.2464e-05,"7"
"Async Serial","data",0.347181264,8.2464e-05,"7"
"Async Serial","data",0.349399882,8.2464e-05,"7"
"Async Serial","data",0.35093288,8.2464e-05,"7"
"Async Serial","data",0.35314959,8.2464e-05,"7"
"Async Serial","data",0.354684282,8.2464e-05,"7"
"Async Serial","data",0.356900412,8.2464e-05,"7"
"Async Serial","data",0.357160184,8.2464e-05,"7"
"Async Serial","data",0.358430868,8.2464e-05,"7"
"Async Serial","data",0.360652992,8.2464e-05,"7"
"Async Serial","data",0.362183446,8.2464e-05,"7"
"Async Serial","data",0.362356618,8.2464e-05,"7"
"Async Serial","data",0.364400716,8.2464e-05,"7"
"Async Serial","data",0.364573874,8.2464e-05,"7"
"Async Serial","data",0.365932622,8.2464e-05,"7"
"Async Serial","data",0.36610577,8.2464e-05,"7"
"Async Serial","data",0.368148662,8.2464e-05,"7"
"Async Serial","data",0.368321824,8.2464e-05,"7"
"Async Serial","data",0.369682758,8.2464e-05,"7"
"Async Serial","data",0.369855914,8.2464e-05,"7"
"Async Serial","data",0.371899876,8.2464e-05,"7"
"Async Serial","data",0.372073036,8.2464e-05,"7"
"Async Serial","data",0.37343188,8.2464e-05,"7"
"Async Serial","data",0.37360504,8.2464e-05,"7"
"Async Serial","data",0.375652886,8.2464e-05,"7"
"Async Serial","data",0.375826056,8.2464e-05,"7"
"Async Serial","data",0.375912642,8.2464e-05,"7"
"Async Serial","data",0.377183314,8.2464e-05,"7"
"Async Serial","data",0.377356476,8.2464e-05,"7"
"Async Serial","data",0.379400428,8.2464e-05,"7"
"Async Serial","data",0.379573588,8.2464e-05,"7"
"Async Serial","data",0.380932344,8.2464e-05,"7"
"Async Serial","data",0.383148968,8.2464e-05,"7"
"Async Serial","data",0.38468527,8.2464e-05,"7"
"Async Serial","data",0.386901896,8.2464e-05,"7"
"Async Serial","data",0.388432784,8.2464e-05,"7"
"Async Serial","data",0.390652708,8.2464e-05,"7"
"Async Serial","data",0.392184102,8.2464e-05,"7"
"Async Serial","data",0.394400318,8.2464e-05,"7"
"Async Serial","data",0.394660072,8.2464e-05,"7"
"Async Serial","data",0.395932878,8.2464e-05,"7"
"Async Serial","data",0.398151332,8.2464e-05,"7"
"Async Serial","data",0.399683956,8.2464e-05,"7"
"Async Serial","data",0.401901238,8.2464e-05,"7"
"Async Serial","data",0.403433218,8.2464e-05,"7"
"Async Serial","data",0.40565357,8.2464e-05,"7"
"Async Serial","data",0.40718444,8.2464e-05,"7"
"Async Serial","data",0.409401542,8.2464e-05,"7"
"Async Serial","data",0.410933976,8.2464e-05,"7"
"Async Serial","data",0.4131532,8.2464e-05,"7"
"Async Serial","data",0.41341295,8.2464e-05,"7"
"Async Serial","data",0.414685162,8.2464e-05,"7"
"Async Serial","data",0.416902212,8.2464e-05,"7"
"Async Serial","data",0.41843242,8.2464e-05,"7"
"Async Serial","data",0.4206526,8.2464e-05,"7"
"Async Serial","data",0.42218446,8.2464e-05,"7"
"Async Serial","data",0.42440096,8.2464e-05,"7"
"Async Serial","data",0.425933362,8.2464e-05,"7"
"Async Serial","data",0.42815136,8.2464e-05,"7"
"Async Serial","data",0.429682908,8.2464e-05,"7"
"Async Serial","data",0.431899876,8.2464e-05,"7"
"Async Serial","data",0.432159592,8.2464e-05,"7"
"Async Serial","data",0.433431748,8.2464e-05,"7"
"Async Serial","data",0.435652716,8.2464e-05,"7"
"Async Serial","data",0.43718284,8.2464e-05,"7"
"Async Serial","data",0.439398908,8.2464e-05,"7"
"Async Serial","data",0.440931364,8.2464e-05,"7"
"Async Serial","data",0.443150256,8.2464e-05,"7"
"Async Serial","data",0.444682232,8.2464e-05,"7"
"Async Serial","data",0.446899436,8.2464e-05,"7"
"Async Serial","data",0.448431296,8.2464e-05,"7"
"Async Serial","data",0.450652068,8.2464e-05,"7"
"Async Serial","data",0.450911784,8.2464e-05,"7"
"Async Serial","data",0.452181704,8.2464e-05,"7"
"Async Serial","data",0.454399762,8.2464e-05,"7"
"Async Serial","data",0.455932302,8.2464e-05,"7"
"Async Serial","data",0.458151096,8.2464e-05,"7"
"Async Serial","data",0.459683614,8.2464e-05,"7"
"Async Serial","data",0.4619025,8.2464e-05,"7"
"Async Serial","data",0.463432966,8.2464e-05,"7"
"Async Serial","data",0.46565406,8.2464e-05,"7"
"Async Serial","data",0.467184472,8.2464e-05,"7"
"Async Serial","data",0.469401304,8.2464e-05,"7"
"Async Serial","data",0.46966107,8.2464e-05,"7"
"Async Serial","data",0.470933996,8.2464e-05,"7"
"Async Serial","data",0.473151854,8.2464e-05,"7"
"Async Serial","data",0.474684518,8.2464e-05,"7"
"Async Serial","data",0.476901386,8.2464e-05,"7"
"Async Serial","data",0.47843236,8.2464e-05,"7"
"Async Serial","data",0.48065495,8.2464e-05,"7"
"Async Serial","data",0.482185234,8.2464e-05,"7"
"Async Serial","data",0.48440173,8.2464e-05,"7"
"Async Serial","data",0.485934464,8.2464e-05,"7"
"Async Serial","data",0.48815252,8.2464e-05,"7"
"Async Serial","data",0.488412298,8.2464e-05,"7"
"Async Serial","data",0.489685272,8.2464e-05,"7"
"Async Serial","data",0.49190274,8.2464e-05,"7"
"Async Serial","data",0.493433334,8.2464e-05,"7"
"Async Serial","data",0.495654072,8.2464e-05,"7"
"Async Serial","data",0.497185254,8.2464e-05,"7"
"Async Serial","data",0.499402696,8.2464e-05,"7"
"Async Serial","data",0.500935332,8.2464e-05,"7"
"Async Serial","data",0.503154324,8.2464e-05,"7"
"Async Serial","data",0.504686464,8.2464e-05,"7"
"Async Serial","data",0.506902724,8.2464e-05,"7"
"Async Serial","data",0.507162478,8.2464e-05,"7"
"Async Serial","data",0.508433102,8.2464e-05,"7"
"Async Serial","data",0.510654122,8.2464e-05,"7"
"Async Serial","data",0.512184336,8.2464e-05,"7"
"Async Serial","data",0.51440126,8.2464e-05,"7"
"Async Serial","data",0.515933152,8.2464e-05,"7"
"Async Serial","data",0.518151852,8.2464e-05,"7"
"Async Serial","data",0.519684314,8.2464e-05,"7"
"Async Serial","data",0.521901114,8.2464e-05,"7"
"Async Serial","data",0.523432116,8.2464e-05,"7"
"Async Serial","data",0.525653216,8.2464e-05,"7"
"Async Serial","data",0.525912964,8.2464e-05,"7"
"Async Serial","data",0.52718463,8.2464e-05,"7"
"Async Serial","data",0.529401304,8.2464e-05,"7"
"Async Serial","data",0.530933848,8.2464e-05,"7"
"Async Serial","data",0.533152188,8.2464e-05,"7"
"Async Serial","data",0.534684744,8.2464e-05,"7"
"Async Serial","data",0.536901604,8.2464e-05,"7"
"Async Serial","data",0.538431576,8.2464e-05,"7"
"Async Serial","data",0.540651662,8.2464e-05,"7"
"Async Serial","data",0.542181734,8.2464e-05,"7"
"Async Serial","data",0.54439815,8.2464e-05,"7"
"Async Serial","data",0.544657884,8.2464e-05,"7"
"Async Serial","data",0.545930664,8.2464e-05,"7"
"Async Serial","data",0.548150132,8.2464e-05,"7"
"Async Serial","data",0.549682802,8.2464e-05,"7"
"Async Serial","data",0.549855976,8.2464e-05,"7"
"Async Serial","data",0.551899476,8.2464e-05,"7"
"Async Serial","data",0.55207262,8.2464e-05,"7"
"Async Serial","data",0.553431944,8.2464e-05,"7"
"Async Serial","data",0.55360509,8.2464e-05,"7"
"Async Serial","data",0.55565351,8.2464e-05,"7"
"Async Serial","data",0.555826676,8.2464e-05,"7"
"Async Serial","data",0.557183864,8.2464e-05,"7"
"Async Serial","data",0.55735703,8.2464e-05,"7"
"Async Serial","data",0.55940108,8.2464e-05,"7"
"Async Serial","data",0.559574244,8.2464e-05,"7"
"Async Serial","data",0.560933632,8.2464e-05,"7"
"Async Serial","data",0.561106812,8.2464e-05,"7"
"Async Serial","data",0.563152024,8.2464e-05,"7"
"Async Serial","data",0.563325196,8.2464e-05,"7"
"Async Serial","data",0.56341179,8.2464e-05,"7"
"Async Serial","data",0.564684576,8.2464e-05,"7"
"Async Serial","data",0.564857754,8.2464e-05,"7"
"Async Serial","data",0.566901392,8.2464e-05,"7"
"Async Serial","data",0.567074592,8.2464e-05,"7"
"Async Serial","data",0.568431856,8.2464e-05,"7"
"Async Serial","data",0.57065252,8.2464e-05,"7"
"Async Serial","data",0.572183446,8.2464e-05,"7"
"Async Serial","data",0.574399544,8.2464e-05,"7"
"Async Serial","data",0.575931504,8.2464e-05,"7"
"Async Serial","data",0.578150256,8.2464e-05,"7"
"Async Serial","data",0.57968215,8.2464e-05,"7"
"Async Serial","data",0.581899952,8.2464e-05,"7"
"Async Serial","data",0.582159718,8.2464e-05,"7"
"Async Serial","data",0.583429864,8.2464e-05,"7"
"Async Serial","data",0.585650914,8.2464e-05,"7"
"Async Serial","data",0.587181304,8.2464e-05,"7"
"Async Serial","data",0.589398712,8.2464e-05,"7"
"Async Serial","data",0.59093136,8.2464e-05,"7"
"Async Serial","data",0.593151862,8.2464e-05,"7"
"Async Serial","data",0.59468447,8.2464e-05,"7"
"Async Serial","data",0.596900576,8.2464e-05,"7"
"Async Serial","data",0.598430942,8.2464e-05,"7"
"Async Serial","data",0.600651446,8.2464e-05,"7"
"Async Serial","data",0.600911194,8.2464e-05,"7"
"Async Serial","data",0.602182344,8.2464e-05,"7"
"Async Serial","data",0.604398922,8.2464e-05,"7"
"Async Serial","data",0.605930852,8.2464e-05,"7"
"Async Serial","data",0.608149552,8.2464e-05,"7"
"Async Serial","data",0.609682582,8.2464e-05,"7"
"Async Serial","data",0.61189913,8.2464e-05,"7"
"Async Serial","data",0.61342935,8.2464e-05,"7"
"Async Serial","data",0.615648958,8.2464e-05,"7"
"Async Serial","data",0.617179708,8.2464e-05,"7"
"Async Serial","data",0.619396228,8.2464e-05,"7"
"Async Serial","data",0.619655986,8.2464e-05,"7"
"Async Serial","data",0.6209304,8.2464e-05,"7"
"Async Serial","data",0.623147448,8.2464e-05,"7"
"Async Serial","data",0.624679418,8.2464e-05,"7"
"Async Serial","data",0.62689534,8.2464e-05,"7"
"Async Serial","data",0.628425656,8.2464e-05,"7"
"Async Serial","data",0.630646094,8.2464e-05,"7"
"Async Serial","data",0.632177538,8.2464e-05,"7"
"Async Serial","data",0.634394648,8.2464e-05,"7"
"Async Serial","data",0.635930342,8.2464e-05,"7"
"Async Serial","data",0.638147558,8.2464e-05,"7"
"Async Serial","data",0.638407318,8.2464e-05,"7"
"Async Serial","data",0.639680162,8.2464e-05,"7"
"Async Serial","data",0.64189695,8.2464e-05,"7"
"Async Serial","data",0.643427346,8.2464e-05,"7"
"Async Serial","data",0.645648366,8.2464e-05,"7"
"Async Serial","data",0.647178742,8.2464e-05,"7"
"Async Serial","data",0.649395376,8.2464e-05,"7"
"Async Serial","data",0.650930612,8.2464e-05,"7"
"Async Serial","data",0.653148326,8.2464e-05,"7"
"Async Serial","data",0.654680846,8.2464e-05,"7"
"Async Serial","data",0.656901272,8.2464e-05,"7"
"Async Serial","data",0.657161016,8.2464e-05,"7"
"Async Serial","data",0.658429998,8.2464e-05,"7"
"Async Serial","data",0.66065141,8.2464e-05,"7"
"Async Serial","data",0.662182832,8.2464e-05,"7"
"Async Serial","data",0.66439937,8.2464e-05,"7"
"Async Serial","data",0.665935692,8.2464e-05,"7"
"Async Serial","data",0.668152328,8.2464e-05,"7"
"Async Serial","data",0.669684616,8.2464e-05,"7"
"Async Serial","data",0.67190454,8.2464e-05,"7"
"Async Serial","data",0.673432894,8.2464e-05,"7"
"Async Serial","data",0.675653406,8.2464e-05,"7"
"Async Serial","data",0.6759131,8.2464e-05,"7"
"Async Serial","data",0.677183942,8.2464e-05,"7"
