name,type,start_time,duration,"data"
"Async Serial","data",0.000679248,8.2464e-05,0x36
"Async Serial","data",0.002207428,8.2464e-05,0x36
"Async Serial","data",0.004424002,8.2464e-05,0x36
"Async Serial","data",0.005958606,8.2464e-05,0x36
"Async Serial","data",0.008175024,8.2464e-05,0x36
"Async Serial","data",0.009708912,8.2464e-05,0x36
"Async Serial","data",0.0119268,8.2464e-05,0x36
"Async Serial","data",0.01345545,8.2464e-05,0x36
"Async Serial","data",0.01567802,8.2464e-05,0x36
"Async Serial","data",0.017206792,8.2464e-05,0x36
"Async Serial","data",0.01746654,8.2464e-05,0x36
"Async Serial","data",0.019422886,8.2464e-05,0x36
"Async Serial","data",0.020957104,8.2464e-05,0x36
"Async Serial","data",0.023174348,8.2464e-05,0x36
"Async Serial","data",0.024708458,8.2464e-05,0x36
"Async Serial","data",0.026925062,8.2464e-05,0x36
"Async Serial","data",0.028453838,8.2464e-05,0x36
"Async Serial","data",0.030675832,8.2464e-05,0x36
"Async Serial","data",0.032204436,8.2464e-05,0x36
"Async Serial","data",0.034420496,8.2464e-05,0x36
"Async Serial","data",0.035955082,8.2464e-05,0x36
"Async Serial","data",0.036214824,8.2464e-05,0x36
"Async Serial","data",0.03817164,8.2464e-05,0x36
"Async Serial","data",0.039705752,8.2464e-05,0x36
"Async Serial","data",0.041922922,8.2464e-05,0x36
"Async Serial","data",0.054964062,8.2464e-05,0x36
"Async Serial","data",0.073710244,8.2464e-05,0x36
"Async Serial","data",0.092462036,8.2464e-05,0x36
"Async Serial","data",0.111210712,8.2464e-05,0x36
"Async Serial","data",0.129960934,8.2464e-05,0x36
"Async Serial","data",0.148708828,8.2464e-05,0x36
"Async Serial","data",0.15612191,8.2464e-05,0x36
"Async Serial","data",0.158338304,8.2464e-05,0x36
"Async Serial","data",0.159872768,8.2464e-05,0x36
"Async Serial","data",0.162089092,8.2464e-05,0x36
"Async Serial","data",0.163619462,8.2464e-05,0x36
"Async Serial","data",0.165839374,8.2464e-05,0x36
"Async Serial","data",0.167368076,8.2464e-05,0x36
"Async Serial","data",0.167454658,8.2464e-05,0x36
"Async Serial","data",0.169586488,8.2464e-05,0x36
"Async Serial","data",0.171118498,8.2464e-05,0x36
"Async Serial","data",0.173335726,8.2464e-05,0x36
"Async Serial","data",0.186205924,8.2464e-05,0x36
"Async Serial","data",0.204952822,8.2464e-05,0x36
"Async Serial","data",0.223697956,8.2464e-05,0x36
"Async Serial","data",0.242449158,8.2464e-05,0x36
"Async Serial","data",0.261197558,8.2464e-05,0x36
"Async Serial","data",0.279945412,8.2464e-05,0x36
"Async Serial","data",0.298692468,8.2464e-05,0x36
"Async Serial","data",0.31744115,8.2464e-05,0x36
"Async Serial","data",0.336193054,8.2464e-05,0x36
"Async Serial","data",0.343606232,8.2464e-05,0x36
"Async Serial","data",0.3458264,8.2464e-05,0x36
"Async Serial","data",0.347354404,8.2464e-05,0x36
"Async Serial","data",0.349573026,8.2464e-05,0x36
"Async Serial","data",0.351106058,8.2464e-05,0x36
"Async Serial","data",0.353322748,8.2464e-05,0x36
"Async Serial","data",0.354857446,8.2464e-05,0x36
"Async Serial","data",0.354944032,8.2464e-05,0x36
"Async Serial","data",0.357073592,8.2464e-05,0x36
"Async Serial","data",0.358604042,8.2464e-05,0x36
"Async Serial","data",0.360826164,8.2464e-05,0x36
"Async Serial","data",0.373691628,8.2464e-05,0x36
"Async Serial","data",0.392443874,8.2464e-05,0x36
"Async Serial","data",0.41119371,8.2464e-05,0x36
"Async Serial","data",0.429942598,8.2464e-05,0x36
"Async Serial","data",0.448691006,8.2464e-05,0x36
"Async Serial","data",0.467444226,8.2464e-05,0x36
"Async Serial","data",0.486194256,8.2464e-05,0x36
"Async Serial","data",0.504946234,8.2464e-05,0x36
"Async Serial","data",0.523691884,8.2464e-05,0x36
"Async Serial","data",0.531107036,8.2464e-05,0x36
"Async Serial","data",0.533325362,8.2464e-05,0x36
"Async Serial","data",0.53485789,8.2464e-05,0x36
"Async Serial","data",0.537074722,8.2464e-05,0x36
"Async Serial","data",0.538604728,8.2464e-05,0x36
"Async Serial","data",0.540824788,8.2464e-05,0x36
"Async Serial","data",0.54235488,8.2464e-05,0x36
"Async Serial","data",0.54244145,8.2464e-05,0x36
"Async Serial","data",0.544571304,8.2464e-05,0x36
"Async Serial","data",0.546103828,8.2464e-05,0x36
"Async Serial","data",0.548323314,8.2464e-05,0x36
"Async Serial","data",0.5611934,8.2464e-05,0x36
"Async Serial","data",0.579941904,8.2464e-05,0x36
"Async Serial","data",0.598690684,8.2464e-05,0x36
"Async Serial","data",0.61743942,8.2464e-05,0x36
"Async Serial","data",0.63619009,8.2464e-05,0x36
"Async Serial","data",0.654940574,8.2464e-05,0x36
"Async Serial","data",0.673692586,8.2464e-05,0x36
"Async Serial","data",0.692440562,8.2464e-05,0x36
"Async Serial","data",0.71119213,8.2464e-05,0x36
"Async Serial","data",0.718601478,8.2464e-05,0x36
"Async Serial","data",0.720821262,8.2464e-05,0x36
"Async Serial","data",0.722352142,8.2464e-05,0x36
"Async Serial","data",0.724570298,8.2464e-05,0x36
"Async Serial","data",0.726104942,8.2464e-05,0x36
"Async Serial","data",0.728321382,8.2464e-05,0x36
"Async Serial","data",0.729855198,8.2464e-05,0x36
"Async Serial","data",0.72994176,8.2464e-05,0x36
"Async Serial","data",0.732073196,8.2464e-05,0x36
"Async Serial","data",0.733601864,8.2464e-05,0x36
"Async Serial","data",0.735822286,8.2464e-05,0x36
"Async Serial","data",0.748687316,8.2464e-05,0x36
"Async Serial","data",0.76744083,8.2464e-05,0x36
"Async Serial","data",0.78618877,8.2464e-05,0x36
"Async Serial","data",0.804936688,8.2464e-05,0x36
"Async Serial","data",0.823683788,8.2464e-05,0x36
"Async Serial","data",0.842442408,8.2464e-05,0x36
"Async Serial","data",0.861194348,8.2464e-05,0x36
"Async Serial","data",0.879941818,8.2464e-05,0x36
"Async Serial","data",0.89868881,8.2464e-05,0x36
"Async Serial","data",0.906104878,8.2464e-05,0x36
"Async Serial","data",0.908321682,8.2464e-05,0x36
"Async Serial","data",0.909856584,8.2464e-05,0x36
"Async Serial","data",0.912073284,8.2464e-05,0x36
"Async Serial","data",0.913603276,8.2464e-05,0x36
"Async Serial","data",0.915823482,8.2464e-05,0x36
"Async Serial","data",0.917354042,8.2464e-05,0x36
"Async Serial","data",0.91744064,8.2464e-05,0x36
"Async Serial","data",0.919571486,8.2464e-05,0x36
"Async Serial","data",0.921105808,8.2464e-05,0x36
"Async Serial","data",0.923322684,8.2464e-05,0x36
"Async Serial","data",0.936192964,8.2464e-05,0x36
"Async Serial","data",0.9549454,8.2464e-05,0x36
"Async Serial","data",0.973692598,8.2464e-05,0x36
"Async Serial","data",0.992447398,8.2464e-05,0x36
"Async Serial","data",1.01119814,8.2464e-05,0x36
"Async Serial","data",1.02994869,8.2464e-05,0x36
"Async Serial","data",1.04869217,8.2464e-05,0x36
"Async Serial","data",1.06744329,8.2464e-05,0x36
"Async Serial","data",1.08619472,8.2464e-05,0x36
"Async Serial","data",1.09360586,8.2464e-05,0x36
"Async Serial","data",1.09582753,8.2464e-05,0x36
"Async Serial","data",1.09735731,8.2464e-05,0x36
"Async Serial","data",1.09957394,8.2464e-05,0x36
"Async Serial","data",1.10110749,8.2464e-05,0x36
"Async Serial","data",1.10332413,8.2464e-05,0x36
"Async Serial","data",1.10485827,8.2464e-05,0x36
"Async Serial","data",1.10494486,8.2464e-05,0x36
"Async Serial","data",1.10707555,8.2464e-05,0x36
"Async Serial","data",1.10860576,8.2464e-05,0x36
"Async Serial","data",1.11082996,8.2464e-05,0x36
"Async Serial","data",1.12369386,8.2464e-05,0x36
"Async Serial","data",1.14244639,8.2464e-05,0x36
"Async Serial","data",1.16119701,8.2464e-05,0x36
"Async Serial","data",1.16852123,8.2464e-05,0x36
"Async Serial","data",1.17074269,8.2464e-05,0x36
"Async Serial","data",1.17227097,8.2464e-05,0x36
"Async Serial","data",1.17448815,8.2464e-05,0x36
"Async Serial","data",1.17602226,8.2464e-05,0x36
"Async Serial","data",1.17823898,8.2464e-05,0x36
"Async Serial","data",1.17977311,8.2464e-05,0x36
"Async Serial","data",1.17994627,8.2464e-05,0x36
"Async Serial","data",1.18199026,8.2464e-05,0x36
"Async Serial","data",1.18352003,8.2464e-05,0x36
"Async Serial","data",1.18574046,8.2464e-05,0x36
"Async Serial","data",1.18726915,8.2464e-05,0x36
"Async Serial","data",1.18948563,8.2464e-05,0x36
"Async Serial","data",1.19102079,8.2464e-05,0x36
"Async Serial","data",1.19323674,8.2464e-05,0x36
"Async Serial","data",1.19477096,8.2464e-05,0x36
"Async Serial","data",1.19698737,8.2464e-05,0x36
"Async Serial","data",1.19851761,8.2464e-05,0x36
"Async Serial","data",1.19869078,8.2464e-05,0x36
"Async Serial","data",1.20073806,8.2464e-05,0x36
"Async Serial","data",1.20226678,8.2464e-05,0x36
"Async Serial","data",1.20448555,8.2464e-05,0x36
"Async Serial","data",1.2060181,8.2464e-05,0x36
"Async Serial","data",1.20823586,8.2464e-05,0x36
"Async Serial","data",1.20977119,8.2464e-05,0x36
"Async Serial","data",1.21198802,8.2464e-05,0x36
"Async Serial","data",1.21351852,8.2464e-05,0x36
"Async Serial","data",1.21573811,8.2464e-05,0x36
"Async Serial","data",1.21726644,8.2464e-05,0x36
"Async Serial","data",1.21743963,8.2464e-05,0x36
"Async Serial","data",1.21948555,8.2464e-05,0x36
"Async Serial","data",1.22101809,8.2464e-05,0x36
"Async Serial","data",1.2232351,8.2464e-05,0x36
"Async Serial","data",1.22476869,8.2464e-05,0x36
"Async Serial","data",1.22698653,8.2464e-05,0x36
"Async Serial","data",1.22851701,8.2464e-05,0x36
"Async Serial","data",1.2307382,8.2464e-05,0x36
"Async Serial","data",1.2322666,8.2464e-05,0x36
"Async Serial","data",1.23448569,8.2464e-05,0x36
"Async Serial","data",1.23601885,8.2464e-05,0x36
"Async Serial","data",1.23619203,8.2464e-05,0x36
"Async Serial","data",1.23823732,8.2464e-05,0x36
"Async Serial","data",1.23977162,8.2464e-05,0x36
"Async Serial","data",1.24198895,8.2464e-05,0x36
"Async Serial","data",1.24351878,8.2464e-05,0x36
"Async Serial","data",1.24573971,8.2464e-05,0x36
"Async Serial","data",1.24726836,8.2464e-05,0x36
"Async Serial","data",1.2494866,8.2464e-05,0x36
"Async Serial","data",1.25101972,8.2464e-05,0x36
"Async Serial","data",1.25323653,8.2464e-05,0x36
"Async Serial","data",1.25477079,8.2464e-05,0x36
"Async Serial","data",1.25494396,8.2464e-05,0x36
"Async Serial","data",1.25698911,8.2464e-05,0x36
"Async Serial","data",1.25851956,8.2464e-05,0x36
"Async Serial","data",1.26074017,8.2464e-05,0x36
"Async Serial","data",1.26226908,8.2464e-05,0x36
"Async Serial","data",1.26448692,8.2464e-05,0x36
"Async Serial","data",1.26601955,8.2464e-05,0x36
"Async Serial","data",1.26823571,8.2464e-05,0x36
"Async Serial","data",1.26976996,8.2464e-05,0x36
"Async Serial","data",1.27198732,8.2464e-05,0x36
"Async Serial","data",1.27351725,8.2464e-05,0x36
"Async Serial","data",1.27369044,8.2464e-05,0x36
"Async Serial","data",1.27573967,8.2464e-05,0x36
"Async Serial","data",1.27726791,8.2464e-05,0x36
"Async Serial","data",1.27948745,8.2464e-05,0x36
"Async Serial","data",1.28102006,8.2464e-05,0x36
"Async Serial","data",1.28110664,8.2464e-05,0x36
"Async Serial","data",1.28323682,8.2464e-05,0x36
"Async Serial","data",1.28332341,8.2464e-05,0x36
"Async Serial","data",1.28477155,8.2464e-05,0x36
"Async Serial","data",1.28485814,8.2464e-05,0x36
"Async Serial","data",1.28698829,8.2464e-05,0x36
"Async Serial","data",1.28707488,8.2464e-05,0x36
"Async Serial","data",1.28851874,8.2464e-05,0x36
"Async Serial","data",1.28860532,8.2464e-05,0x36
"Async Serial","data",1.29073928,8.2464e-05,0x36
"Async Serial","data",1.29082586,8.2464e-05,0x36
"Async Serial","data",1.2922679,8.2464e-05,0x36
"Async Serial","data",1.29235448,8.2464e-05,0x36
"Async Serial","data",1.29244107,8.2464e-05,0x36
"Async Serial","data",1.29448684,8.2464e-05,0x36
"Async Serial","data",1.29457343,8.2464e-05,0x36
"Async Serial","data",1.29601884,8.2464e-05,0x36
"Async Serial","data",1.29610542,8.2464e-05,0x36
"Async Serial","data",1.29823611,8.2464e-05,0x36
"Async Serial","data",1.29832271,8.2464e-05,0x36
"Async Serial","data",1.29977036,8.2464e-05,0x36
"Async Serial","data",1.30198927,8.2464e-05,0x36
"Async Serial","data",1.30351909,8.2464e-05,0x36
"Async Serial","data",1.3057396,8.2464e-05,0x36
"Async Serial","data",1.30726818,8.2464e-05,0x36
"Async Serial","data",1.30948571,8.2464e-05,0x36
"Async Serial","data",1.31101755,8.2464e-05,0x36
"Async Serial","data",1.31119071,8.2464e-05,0x36
"Async Serial","data",1.31323503,8.2464e-05,0x36
"Async Serial","data",1.31477035,8.2464e-05,0x36
"Async Serial","data",1.31698732,8.2464e-05,0x36
"Async Serial","data",1.31851727,8.2464e-05,0x36
"Async Serial","data",1.32073788,8.2464e-05,0x36
"Async Serial","data",1.32226599,8.2464e-05,0x36
"Async Serial","data",1.32448335,8.2464e-05,0x36
"Async Serial","data",1.32601518,8.2464e-05,0x36
"Async Serial","data",1.32823384,8.2464e-05,0x36
"Async Serial","data",1.3297677,8.2464e-05,0x36
"Async Serial","data",1.32994085,8.2464e-05,0x36
"Async Serial","data",1.33198356,8.2464e-05,0x36
"Async Serial","data",1.3335143,8.2464e-05,0x36
"Async Serial","data",1.33573452,8.2464e-05,0x36
"Async Serial","data",1.33726255,8.2464e-05,0x36
"Async Serial","data",1.33948146,8.2464e-05,0x36
"Async Serial","data",1.34101462,8.2464e-05,0x36
"Async Serial","data",1.34323343,8.2464e-05,0x36
"Async Serial","data",1.34476749,8.2464e-05,0x36
"Async Serial","data",1.34698397,8.2464e-05,0x36
"Async Serial","data",1.34851416,8.2464e-05,0x36
"Async Serial","data",1.3486873,8.2464e-05,0x36
"Async Serial","data",1.35073389,8.2464e-05,0x36
"Async Serial","data",1.3522625,8.2464e-05,0x36
"Async Serial","data",1.35448056,8.2464e-05,0x36
"Async Serial","data",1.36743621,8.2464e-05,0x36
"Async Serial","data",1.38618876,8.2464e-05,0x36
"Async Serial","data",1.40493726,8.2464e-05,0x36
"Async Serial","data",1.42368728,8.2464e-05,0x36
"Async Serial","data",1.44243833,8.2464e-05,0x36
"Async Serial","data",1.46119088,8.2464e-05,0x36
"Async Serial","data",1.46860506,8.2464e-05,0x36
"Async Serial","data",1.47082492,8.2464e-05,0x36
"Async Serial","data",1.47235538,8.2464e-05,0x36
"Async Serial","data",1.47457261,8.2464e-05,0x36
"Async Serial","data",1.47610525,8.2464e-05,0x36
"Async Serial","data",1.47832352,8.2464e-05,0x36
"Async Serial","data",1.47985601,8.2464e-05,0x36
"Async Serial","data",1.4799426,8.2464e-05,0x36
"Async Serial","data",1.48207266,8.2464e-05,0x36
"Async Serial","data",1.48360411,8.2464e-05,0x36
"Async Serial","data",1.48582423,8.2464e-05,0x36
"Async Serial","data",1.49868925,8.2464e-05,0x36
"Async Serial","data",1.51743818,8.2464e-05,0x36
"Async Serial","data",1.5361872,8.2464e-05,0x36
"Async Serial","data",1.55493582,8.2464e-05,0x36
"Async Serial","data",1.57368199,8.2464e-05,0x36
"Async Serial","data",1.59243074,8.2464e-05,0x36
"Async Serial","data",1.6111788,8.2464e-05,0x36
"Async Serial","data",1.62993008,8.2464e-05,0x36
"Async Serial","data",1.64867772,8.2464e-05,0x36
"Async Serial","data",1.65609082,8.2464e-05,0x36
"Async Serial","data",1.65830964,8.2464e-05,0x36
"Async Serial","data",1.65984155,8.2464e-05,0x36
"Async Serial","data",1.66205802,8.2464e-05,0x36
"Async Serial","data",1.66358887,8.2464e-05,0x36
"Async Serial","data",1.66580934,8.2464e-05,0x36
"Async Serial","data",1.66733967,8.2464e-05,0x36
"Async Serial","data",1.66742625,8.2464e-05,0x36
"Async Serial","data",1.66955638,8.2464e-05,0x36
"Async Serial","data",1.67108888,8.2464e-05,0x36
"Async Serial","data",1.67330723,8.2464e-05,0x36
"Async Serial","data",1.68617987,8.2464e-05,0x36
"Async Serial","data",1.70493033,8.2464e-05,0x36
"Async Serial","data",1.72367621,8.2464e-05,0x36
"Async Serial","data",1.74242842,8.2464e-05,0x36
"Async Serial","data",1.76117944,8.2464e-05,0x36
"Async Serial","data",1.77992898,8.2464e-05,0x36
"Async Serial","data",1.79867716,8.2464e-05,0x36
"Async Serial","data",1.81742434,8.2464e-05,0x36
"Async Serial","data",1.83617551,8.2464e-05,0x36
"Async Serial","data",1.84358696,8.2464e-05,0x36
"Async Serial","data",1.84580798,8.2464e-05,0x36
"Async Serial","data",1.84733764,8.2464e-05,0x36
"Async Serial","data",1.84955451,8.2464e-05,0x36
"Async Serial","data",1.85108807,8.2464e-05,0x36
"Async Serial","data",1.8533053,8.2464e-05,0x36
"Async Serial","data",1.85483732,8.2464e-05,0x36
"Async Serial","data",1.8549239,8.2464e-05,0x36
"Async Serial","data",1.85705605,8.2464e-05,0x36
"Async Serial","data",1.85858476,8.2464e-05,0x36
"Async Serial","data",1.86080559,8.2464e-05,0x36
"Async Serial","data",1.87366957,8.2464e-05,0x36
"Async Serial","data",1.89241882,8.2464e-05,0x36
"Async Serial","data",1.91117108,8.2464e-05,0x36
"Async Serial","data",1.92991887,8.2464e-05,0x36
"Async Serial","data",1.94866853,8.2464e-05,0x36
"Async Serial","data",1.967419,8.2464e-05,0x36
"Async Serial","data",1.98617143,8.2464e-05,0x36
"Async Serial","data",2.00491997,8.2464e-05,0x36
"Async Serial","data",2.0236674,8.2464e-05,0x36
"Async Serial","data",2.03108124,8.2464e-05,0x36
"Async Serial","data",2.03329692,8.2464e-05,0x36
"Async Serial","data",2.03483203,8.2464e-05,0x36
"Async Serial","data",2.03704977,8.2464e-05,0x36
"Async Serial","data",2.03857795,8.2464e-05,0x36
"Async Serial","data",2.04080045,8.2464e-05,0x36
"Async Serial","data",2.04232914,8.2464e-05,0x36
"Async Serial","data",2.04241572,8.2464e-05,0x36
"Async Serial","data",2.04454668,8.2464e-05,0x36
"Async Serial","data",2.04608186,8.2464e-05,0x36
"Async Serial","data",2.04829786,8.2464e-05,0x36
"Async Serial","data",2.0611684,8.2464e-05,0x36
"Async Serial","data",2.0799181,8.2464e-05,0x36
"Async Serial","data",2.09866591,8.2464e-05,0x36
"Async Serial","data",2.11741593,8.2464e-05,0x36
"Async Serial","data",2.13616501,8.2464e-05,0x36
"Async Serial","data",2.15491561,8.2464e-05,0x36
"Async Serial","data",2.17366011,8.2464e-05,0x36
"Async Serial","data",2.19241008,8.2464e-05,0x36
"Async Serial","data",2.21116178,8.2464e-05,0x36
"Async Serial","data",2.21857293,8.2464e-05,0x36
"Async Serial","data",2.2207956,8.2464e-05,0x36
"Async Serial","data",2.22232444,8.2464e-05,0x36
"Async Serial","data",2.22454285,8.2464e-05,0x36
"Async Serial","data",2.22607861,8.2464e-05,0x36
"Async Serial","data",2.22829525,8.2464e-05,0x36
"Async Serial","data",2.22983043,8.2464e-05,0x36
"Async Serial","data",2.22991701,8.2464e-05,0x36
"Async Serial","data",2.23204705,8.2464e-05,0x36
"Async Serial","data",2.2335757,8.2464e-05,0x36
"Async Serial","data",2.2357993,8.2464e-05,0x36
"Async Serial","data",2.2486635,8.2464e-05,0x36
"Async Serial","data",2.26741385,8.2464e-05,0x36
"Async Serial","data",2.28616625,8.2464e-05,0x36
"Async Serial","data",2.30491687,8.2464e-05,0x36
"Async Serial","data",2.32366442,8.2464e-05,0x36
"Async Serial","data",2.34241606,8.2464e-05,0x36
"Async Serial","data",2.36116759,8.2464e-05,0x36
"Async Serial","data",2.37991919,8.2464e-05,0x36
"Async Serial","data",2.39866651,8.2464e-05,0x36
"Async Serial","data",2.40608101,8.2464e-05,0x36
"Async Serial","data",2.40829757,8.2464e-05,0x36
"Async Serial","data",2.40983278,8.2464e-05,0x36
"Async Serial","data",2.41204891,8.2464e-05,0x36
"Async Serial","data",2.41358141,8.2464e-05,0x36
"Async Serial","data",2.41580191,8.2464e-05,0x36
"Async Serial","data",2.4173306,8.2464e-05,0x36
"Async Serial","data",2.41741718,8.2464e-05,0x36
"Async Serial","data",2.41954891,8.2464e-05,0x36
"Async Serial","data",2.42108146,8.2464e-05,0x36
"Async Serial","data",2.42329811,8.2464e-05,0x36
"Async Serial","data",2.43616809,8.2464e-05,0x36
"Async Serial","data",2.45491882,8.2464e-05,0x36
"Async Serial","data",2.47366441,8.2464e-05,0x36
"Async Serial","data",2.4924146,8.2464e-05,0x36
"Async Serial","data",2.51116754,8.2464e-05,0x36
"Async Serial","data",2.52992136,8.2464e-05,0x36
"Async Serial","data",2.54866969,8.2464e-05,0x36
"Async Serial","data",2.5674199,8.2464e-05,0x36
"Async Serial","data",2.58616795,8.2464e-05,0x36
"Async Serial","data",2.59357932,8.2464e-05,0x36
"Async Serial","data",2.59580043,8.2464e-05,0x36
"Async Serial","data",2.59733026,8.2464e-05,0x36
"Async Serial","data",2.5995466,8.2464e-05,0x36
"Async Serial","data",2.60107905,8.2464e-05,0x36
"Async Serial","data",2.60329727,8.2464e-05,0x36
"Async Serial","data",2.60482914,8.2464e-05,0x36
"Async Serial","data",2.60491571,8.2464e-05,0x36
"Async Serial","data",2.60704627,8.2464e-05,0x36
"Async Serial","data",2.60857723,8.2464e-05,0x36
"Async Serial","data",2.61079824,8.2464e-05,0x36
"Async Serial","data",2.62366236,8.2464e-05,0x36
"Async Serial","data",2.642415,8.2464e-05,0x36
"Async Serial","data",2.66116197,8.2464e-05,0x36
"Async Serial","data",2.67991319,8.2464e-05,0x36
